<Qucs Dataset 0.0.16>
<indep time 19>
  +0.00000000000e+000
  +5.00000000000e-007
  +1.00000000000e-006
  +1.50000000000e-006
  +2.00000000000e-006
  +2.50000000000e-006
  +3.00000000000e-006
  +3.50000000000e-006
  +4.00000000000e-006
  +4.50000000000e-006
  +5.00000000000e-006
  +5.50000000000e-006
  +6.00000000000e-006
  +6.50000000000e-006
  +7.00000000000e-006
  +7.50000000000e-006
  +8.00000000000e-006
  +8.50000000000e-006
  +9.00000000000e-006
</indep>
<dep V1.It time>
  -4.06030309065e-002
  -1.02416124722e+000
  -1.77419063725e+000
  +8.95830291853e-005
  +3.98563741050e-003
  -7.15834324821e-001
  -1.08378672654e+000
  +2.83821606296e-002
  +1.97543519589e-002
  -6.51887073212e-001
  -1.05270868518e+000
  +2.87424088751e-002
  +1.90002463547e-002
  -6.61952136204e-001
  -1.06661926854e+000
  +2.69670785242e-002
  +1.96562466251e-002
  -6.56108035493e-001
  -1.06198891631e+000
</dep>
<dep V4.It time>
  +2.44042338882e-001
  -4.86218853419e-004
  -2.18602304870e-004
  +2.89904037281e-004
  +4.18420953614e-002
  -2.63997325845e-004
  -1.56639635341e-004
  +5.77312391524e-002
  +6.20253950762e-002
  -2.99644581218e-004
  -1.74454702314e-004
  +6.07259823734e-002
  +6.07207981757e-002
  -3.01624555461e-004
  -1.74038558718e-004
  +5.28316897583e-002
  +6.09075281217e-002
  -3.03518842409e-004
  -1.75057632370e-004
</dep>
<dep Iload1.It time>
  +5.95363746375e-006
  +1.46282692053e-005
  +7.18393498353e-005
  +1.58489607300e-004
  +2.45908400319e-004
  +3.32728673577e-004
  +4.20275994733e-004
  +5.08352434863e-004
  +5.95443985644e-004
  +6.81863490526e-004
  +7.69089666940e-004
  +8.56956630649e-004
  +9.43850324669e-004
  +1.03011548728e-003
  +1.11728955056e-003
  +1.20515524690e-003
  +1.29205955823e-003
  +1.37832599822e-003
  +1.46548736540e-003
</dep>
<dep Vinput.Vt time>
  -8.50176194111e-001
  +2.11376518426e+000
  +2.06442346869e+000
  -8.83868893936e-001
  +2.89091552774e+000
  +2.14033626928e+000
  +2.11053922896e+000
  -1.95168196344e-001
  +1.34159482988e+000
  +2.14614037330e+000
  +2.11281404681e+000
  -1.34957829123e-001
  +1.36765326316e+000
  +2.14517923769e+000
  +2.11176207298e+000
  -2.67433701914e-001
  +1.26598890806e+000
  +2.14572445411e+000
  +2.11210748159e+000
</dep>
<dep _net2.Vt time>
  -7.73820121164e-005
  +2.60474004510e-001
  +9.68926118185e-001
  +1.40681508316e+000
  +1.25502799588e+000
  +1.29674756646e+000
  +1.49498093799e+000
  +1.42635246177e+000
  +1.20330165946e+000
  +1.23318549255e+000
  +1.43718389243e+000
  +1.38405928276e+000
  +1.17683166668e+000
  +1.21907333693e+000
  +1.43338087433e+000
  +1.38717508134e+000
  +1.17891595652e+000
  +1.21806653798e+000
  +1.43065446730e+000
</dep>
<dep _net0.Vt time>
  -8.33355307417e-005
  +2.60459363285e-001
  +8.39937347883e-001
  +8.76492589103e-001
  +8.68319439397e-001
  +8.70813339095e-001
  +8.80298906228e-001
  +8.77370344337e-001
  +8.64844931418e-001
  +8.66886016414e-001
  +8.77842026671e-001
  +8.75379558514e-001
  +8.62870438676e-001
  +8.65914227137e-001
  +8.77657771465e-001
  +8.75513295589e-001
  +8.63002570203e-001
  +8.65821396115e-001
  +8.77520492387e-001
</dep>
<dep _net1.Vt time>
  -8.33355307417e-005
  +2.60459363285e-001
  +8.39937347883e-001
  +8.76492589103e-001
  +8.68319439397e-001
  +8.70813339095e-001
  +8.80298906228e-001
  +8.77370344337e-001
  +8.64844931418e-001
  +8.66886016414e-001
  +8.77842026671e-001
  +8.75379558514e-001
  +8.62870438676e-001
  +8.65914227137e-001
  +8.77657771465e-001
  +8.75513295589e-001
  +8.63002570203e-001
  +8.65821396115e-001
  +8.77520492387e-001
</dep>
<dep GateVoltage.Vt time>
  +0.00000000000e+000
  +6.00000000000e+000
  +6.00000000000e+000
  +0.00000000000e+000
  +0.00000000000e+000
  +6.00000000000e+000
  +6.00000000000e+000
  +0.00000000000e+000
  +0.00000000000e+000
  +6.00000000000e+000
  +6.00000000000e+000
  +0.00000000000e+000
  +2.54109884176e-012
  +6.00000000000e+000
  +6.00000000000e+000
  +0.00000000000e+000
  +0.00000000000e+000
  +6.00000000000e+000
  +5.99999940002e+000
</dep>
<dep VinputOne.Vt time>
  +1.20000000000e+001
  +1.20000000000e+001
  +1.20000000000e+001
  +1.20000000000e+001
  +1.20000000000e+001
  +1.20000000000e+001
  +1.20000000000e+001
  +1.20000000000e+001
  +1.20000000000e+001
  +1.20000000000e+001
  +1.20000000000e+001
  +1.20000000000e+001
  +1.20000000000e+001
  +1.20000000000e+001
  +1.20000000000e+001
  +1.20000000000e+001
  +1.20000000000e+001
  +1.20000000000e+001
  +1.20000000000e+001
</dep>
<indep V1.I 1>
  -5.95372624337e-006
</indep>
<indep V4.I 1>
  +1.35757063817e-032
</indep>
<indep Iload1.I 1>
  +5.95371608793e-006
</indep>
<indep Vinput.V 1>
  +5.95371608793e-006
</indep>
<indep _net2.V 1>
  +5.95371608793e-006
</indep>
<indep _net0.V 1>
  +0.00000000000e+000
</indep>
<indep _net1.V 1>
  +0.00000000000e+000
</indep>
<indep GateVoltage.V 1>
  +3.00000000000e+000
</indep>
<indep VinputOne.V 1>
  +1.20000000000e+001
</indep>
