<Qucs Dataset 0.0.16>
<indep time 100>
  +0.00000000000e+000
  +1.01010101010e-004
  +2.02020202020e-004
  +3.03030303030e-004
  +4.04040404040e-004
  +5.05050505051e-004
  +6.06060606061e-004
  +7.07070707071e-004
  +8.08080808081e-004
  +9.09090909091e-004
  +1.01010101010e-003
  +1.11111111111e-003
  +1.21212121212e-003
  +1.31313131313e-003
  +1.41414141414e-003
  +1.51515151515e-003
  +1.61616161616e-003
  +1.71717171717e-003
  +1.81818181818e-003
  +1.91919191919e-003
  +2.02020202020e-003
  +2.12121212121e-003
  +2.22222222222e-003
  +2.32323232323e-003
  +2.42424242424e-003
  +2.52525252525e-003
  +2.62626262626e-003
  +2.72727272727e-003
  +2.82828282828e-003
  +2.92929292929e-003
  +3.03030303030e-003
  +3.13131313131e-003
  +3.23232323232e-003
  +3.33333333333e-003
  +3.43434343434e-003
  +3.53535353535e-003
  +3.63636363636e-003
  +3.73737373737e-003
  +3.83838383838e-003
  +3.93939393939e-003
  +4.04040404040e-003
  +4.14141414141e-003
  +4.24242424242e-003
  +4.34343434343e-003
  +4.44444444444e-003
  +4.54545454545e-003
  +4.64646464646e-003
  +4.74747474747e-003
  +4.84848484848e-003
  +4.94949494949e-003
  +5.05050505051e-003
  +5.15151515152e-003
  +5.25252525253e-003
  +5.35353535354e-003
  +5.45454545455e-003
  +5.55555555556e-003
  +5.65656565657e-003
  +5.75757575758e-003
  +5.85858585859e-003
  +5.95959595960e-003
  +6.06060606061e-003
  +6.16161616162e-003
  +6.26262626263e-003
  +6.36363636364e-003
  +6.46464646465e-003
  +6.56565656566e-003
  +6.66666666667e-003
  +6.76767676768e-003
  +6.86868686869e-003
  +6.96969696970e-003
  +7.07070707071e-003
  +7.17171717172e-003
  +7.27272727273e-003
  +7.37373737374e-003
  +7.47474747475e-003
  +7.57575757576e-003
  +7.67676767677e-003
  +7.77777777778e-003
  +7.87878787879e-003
  +7.97979797980e-003
  +8.08080808081e-003
  +8.18181818182e-003
  +8.28282828283e-003
  +8.38383838384e-003
  +8.48484848485e-003
  +8.58585858586e-003
  +8.68686868687e-003
  +8.78787878788e-003
  +8.88888888889e-003
  +8.98989898990e-003
  +9.09090909091e-003
  +9.19191919192e-003
  +9.29292929293e-003
  +9.39393939394e-003
  +9.49494949495e-003
  +9.59595959596e-003
  +9.69696969697e-003
  +9.79797979798e-003
  +9.89898989899e-003
  +1.00000000000e-002
</indep>
<dep V2.It time>
  -1.98408409484e-012
  -1.60000001984e-004
  -1.60000001984e-004
  -1.60000001984e-004
  -1.60000001984e-004
  -1.60000001984e-004
  -1.60000001984e-004
  -1.60000001984e-004
  -1.60000001984e-004
  -1.60000001984e-004
  -1.98408409484e-012
  -1.98408409484e-012
  -1.98408409484e-012
  -1.98408409484e-012
  -1.98408409484e-012
  -1.98408409484e-012
  -1.98408409484e-012
  -1.98408409484e-012
  -1.98408409484e-012
  -1.98408409484e-012
  -1.60000001984e-004
  -1.60000001984e-004
  -1.60000001984e-004
  -1.60000001984e-004
  -1.60000001984e-004
  -1.60000001984e-004
  -1.60000001984e-004
  -1.60000001984e-004
  -1.60000001984e-004
  -1.60000001984e-004
  -1.98408409484e-012
  -1.98408409484e-012
  -1.98408409484e-012
  -1.98408409484e-012
  -1.98408409484e-012
  -1.98408409484e-012
  -1.98408409484e-012
  -1.98408409484e-012
  -1.98408409484e-012
  -1.98408409484e-012
  -1.60000001984e-004
  -1.60000001984e-004
  -1.60000001984e-004
  -1.60000001984e-004
  -1.60000001984e-004
  -1.60000001984e-004
  -1.60000001984e-004
  -1.60000001984e-004
  -1.60000001984e-004
  -1.60000001984e-004
  -1.98408409484e-012
  -1.98408409484e-012
  -1.98408409484e-012
  -1.98408409484e-012
  -1.98408409484e-012
  -1.98408409484e-012
  -1.98408409484e-012
  -1.98408409484e-012
  -1.98408409484e-012
  -1.98408409484e-012
  -1.60000001984e-004
  -1.60000001984e-004
  -1.60000001984e-004
  -1.60000001984e-004
  -1.60000001984e-004
  -1.60000001984e-004
  -1.60000001984e-004
  -1.60000001984e-004
  -1.60000001984e-004
  -1.60000001984e-004
  -1.98408409484e-012
  -1.98408409484e-012
  -1.98408409484e-012
  -1.98408409484e-012
  -1.98408409484e-012
  -1.98408409484e-012
  -1.98408409484e-012
  -1.98408409484e-012
  -1.98408409484e-012
  -1.98408409484e-012
  -1.60000001984e-004
  -1.60000001984e-004
  -1.60000001984e-004
  -1.60000001984e-004
  -1.60000001984e-004
  -1.60000001984e-004
  -1.60000001984e-004
  -1.60000001984e-004
  -1.60000001984e-004
  -1.60000001984e-004
  -1.98408409484e-012
  -1.98408409484e-012
  -1.98408409484e-012
  -1.98408409484e-012
  -1.98408409484e-012
  -1.98408409484e-012
  -1.98408409484e-012
  -1.98408409484e-012
  -1.98408409484e-012
  -1.98408409484e-012
</dep>
<dep V3.It time>
  -5.83162331850e-023
  +9.88941271078e-007
  -9.88941271078e-007
  +9.88941271078e-007
  -9.88941271078e-007
  +9.88941271078e-007
  -9.88941271078e-007
  +9.88941271078e-007
  -9.88941271078e-007
  +9.88941271078e-007
  -9.88991149669e-007
  +9.88991149669e-007
  -9.88991149669e-007
  +9.88991149669e-007
  -9.88991149669e-007
  +9.88991149669e-007
  -9.88991149669e-007
  +9.88991149669e-007
  -9.88991149669e-007
  +9.88991149669e-007
  -9.88925923819e-007
  +9.88925923819e-007
  -9.88925923819e-007
  +9.88925923819e-007
  -9.88925923819e-007
  +9.88925923819e-007
  -9.88925923819e-007
  +9.88925923819e-007
  -9.88925923819e-007
  +9.88925923819e-007
  -9.88975802410e-007
  +9.88975802410e-007
  -9.88975802410e-007
  +9.88975802410e-007
  -9.88975802410e-007
  +9.88975802410e-007
  -9.88975802410e-007
  +9.88975802410e-007
  -9.88975802410e-007
  +9.88975802410e-007
  -9.88910576560e-007
  +9.88910576560e-007
  -9.88910576560e-007
  +9.88910576560e-007
  -9.88910576560e-007
  +9.88910576560e-007
  -9.88910576560e-007
  +9.88910576560e-007
  -9.88910576560e-007
  +9.88910576560e-007
  -9.88960455151e-007
  +9.88960455151e-007
  -9.88960455151e-007
  +9.88960455151e-007
  -9.88960455151e-007
  +9.88960455151e-007
  -9.88960455151e-007
  +9.88960455151e-007
  -9.88960455151e-007
  +9.88960455151e-007
  -3.22164625299e-006
  -3.22164625299e-006
  +3.22164625299e-006
  -3.22164625299e-006
  +3.22164625299e-006
  -3.22164625299e-006
  +3.22164625299e-006
  -3.22164625299e-006
  +3.22164625299e-006
  -3.22164625299e-006
  -1.17988251606e-006
  +1.17988251606e-006
  -1.17988251606e-006
  +1.17988251606e-006
  -1.17988251606e-006
  +1.17988251606e-006
  -1.17988251606e-006
  +1.17988251606e-006
  -1.17988251606e-006
  +1.17988251606e-006
  -1.12291509613e-006
  +1.12291509613e-006
  -1.12291509613e-006
  +1.12291509613e-006
  -1.12291509613e-006
  +1.12291509613e-006
  -1.12291509613e-006
  +1.12291509613e-006
  -1.12291509613e-006
  +1.12291509613e-006
  -1.19822062842e-006
  +1.19822062842e-006
  -1.19822062842e-006
  +1.19822062842e-006
  -1.19822062842e-006
  +1.19822062842e-006
  -1.19822062842e-006
  +1.19822062842e-006
  -1.19822062842e-006
  +1.19822062842e-006
</dep>
<dep V4.It time>
  -1.60000001984e-004
  -1.13302023151e-008
  +1.13262341469e-008
  -1.13302023151e-008
  +1.13262341469e-008
  -1.13302023151e-008
  +1.13262341469e-008
  -1.13302023151e-008
  +1.13262341469e-008
  -1.13302023151e-008
  -1.59988673305e-004
  -1.60011330663e-004
  -1.59988673305e-004
  -1.60011330663e-004
  -1.59988673305e-004
  -1.60011330663e-004
  -1.59988673305e-004
  -1.60011330663e-004
  -1.59988673305e-004
  -1.60011330663e-004
  +1.13262341469e-008
  -1.13302023151e-008
  +1.13262341469e-008
  -1.13302023151e-008
  +1.13262341469e-008
  -1.13302023151e-008
  +1.13262341469e-008
  -1.13302023151e-008
  +1.13262341469e-008
  -1.13302023151e-008
  -1.59988673305e-004
  -1.60011330663e-004
  -1.59988673305e-004
  -1.60011330663e-004
  -1.59988673305e-004
  -1.60011330663e-004
  -1.59988673305e-004
  -1.60011330663e-004
  -1.59988673305e-004
  -1.60011330663e-004
  +1.13262341469e-008
  -1.13302023151e-008
  +1.13262341469e-008
  -1.13302023151e-008
  +1.13262341469e-008
  -1.13302023151e-008
  +1.13262341469e-008
  -1.13302023151e-008
  +1.13262341469e-008
  -1.13302023151e-008
  -1.59988673305e-004
  -1.60011330663e-004
  -1.59988673305e-004
  -1.60011330663e-004
  -1.59988673305e-004
  -1.60011330663e-004
  -1.59988673305e-004
  -1.60011330663e-004
  -1.59988673305e-004
  -1.60011330663e-004
  +3.03103809551e-008
  +3.03103809551e-008
  -3.03143491233e-008
  +3.03103809551e-008
  -3.03143491233e-008
  +3.03103809551e-008
  -3.03143491233e-008
  +3.03103809551e-008
  -3.03143491233e-008
  +3.03103809551e-008
  -1.59985962388e-004
  -1.60014041580e-004
  -1.59985962388e-004
  -1.60014041580e-004
  -1.59985962388e-004
  -1.60014041580e-004
  -1.59985962388e-004
  -1.60014041580e-004
  -1.59985962388e-004
  -1.60014041580e-004
  +1.51717011398e-008
  -1.51756693079e-008
  +1.51717011398e-008
  -1.51756693079e-008
  +1.51717011398e-008
  -1.51756693079e-008
  +1.51717011398e-008
  -1.51756693079e-008
  +1.51717011398e-008
  -1.51756693079e-008
  -1.59984138564e-004
  -1.60015865405e-004
  -1.59984138564e-004
  -1.60015865405e-004
  -1.59984138564e-004
  -1.60015865405e-004
  -1.59984138564e-004
  -1.60015865405e-004
  -1.59984138564e-004
  -1.60015865405e-004
</dep>
<dep V5.It time>
  +1.65436122511e-024
  +1.13282182310e-008
  -1.13282182310e-008
  +1.13282182310e-008
  -1.13282182310e-008
  +1.13282182310e-008
  -1.13282182310e-008
  +1.13282182310e-008
  -1.13282182310e-008
  +1.13282182310e-008
  -1.13286786488e-008
  +1.13286786488e-008
  -1.13286786488e-008
  +1.13286786488e-008
  -1.13286786488e-008
  +1.13286786488e-008
  -1.13286786488e-008
  +1.13286786488e-008
  -1.13286786488e-008
  +1.13286786488e-008
  -1.13282182310e-008
  +1.13282182310e-008
  -1.13282182310e-008
  +1.13282182310e-008
  -1.13282182310e-008
  +1.13282182310e-008
  -1.13282182310e-008
  +1.13282182310e-008
  -1.13282182310e-008
  +1.13282182310e-008
  -1.13286786488e-008
  +1.13286786488e-008
  -1.13286786488e-008
  +1.13286786488e-008
  -1.13286786488e-008
  +1.13286786488e-008
  -1.13286786488e-008
  +1.13286786488e-008
  -1.13286786488e-008
  +1.13286786488e-008
  -1.13282182310e-008
  +1.13282182310e-008
  -1.13282182310e-008
  +1.13282182310e-008
  -1.13282182310e-008
  +1.13282182310e-008
  -1.13282182310e-008
  +1.13282182310e-008
  -1.13282182310e-008
  +1.13282182310e-008
  -1.13286786488e-008
  +1.13286786488e-008
  -1.13286786488e-008
  +1.13286786488e-008
  -1.13286786488e-008
  +1.13286786488e-008
  -1.13286786488e-008
  +1.13286786488e-008
  -1.13286786488e-008
  +1.13286786488e-008
  -3.03123650392e-008
  -3.03123650392e-008
  +3.03123650392e-008
  -3.03123650392e-008
  +3.03123650392e-008
  -3.03123650392e-008
  +3.03123650392e-008
  -3.03123650392e-008
  +3.03123650392e-008
  -3.03123650392e-008
  -1.40395962954e-008
  +1.40395962954e-008
  -1.40395962954e-008
  +1.40395962954e-008
  -1.40395962954e-008
  +1.40395962954e-008
  -1.40395962954e-008
  +1.40395962954e-008
  -1.40395962954e-008
  +1.40395962954e-008
  -1.51736852238e-008
  +1.51736852238e-008
  -1.51736852238e-008
  +1.51736852238e-008
  -1.51736852238e-008
  +1.51736852238e-008
  -1.51736852238e-008
  +1.51736852238e-008
  -1.51736852238e-008
  +1.51736852238e-008
  -1.58634204200e-008
  +1.58634204200e-008
  -1.58634204200e-008
  +1.58634204200e-008
  -1.58634204200e-008
  +1.58634204200e-008
  -1.58634204200e-008
  +1.58634204200e-008
  -1.58634204200e-008
  +1.58634204200e-008
</dep>
<dep Idrain2.It time>
  +1.60000001984e-004
  +1.13302023151e-008
  -1.13262341469e-008
  +1.13302023151e-008
  -1.13262341469e-008
  +1.13302023151e-008
  -1.13262341469e-008
  +1.13302023151e-008
  -1.13262341469e-008
  +1.13302023151e-008
  +1.59988673305e-004
  +1.60011330663e-004
  +1.59988673305e-004
  +1.60011330663e-004
  +1.59988673305e-004
  +1.60011330663e-004
  +1.59988673305e-004
  +1.60011330663e-004
  +1.59988673305e-004
  +1.60011330663e-004
  -1.13262341469e-008
  +1.13302023151e-008
  -1.13262341469e-008
  +1.13302023151e-008
  -1.13262341469e-008
  +1.13302023151e-008
  -1.13262341469e-008
  +1.13302023151e-008
  -1.13262341469e-008
  +1.13302023151e-008
  +1.59988673305e-004
  +1.60011330663e-004
  +1.59988673305e-004
  +1.60011330663e-004
  +1.59988673305e-004
  +1.60011330663e-004
  +1.59988673305e-004
  +1.60011330663e-004
  +1.59988673305e-004
  +1.60011330663e-004
  -1.13262341469e-008
  +1.13302023151e-008
  -1.13262341469e-008
  +1.13302023151e-008
  -1.13262341469e-008
  +1.13302023151e-008
  -1.13262341469e-008
  +1.13302023151e-008
  -1.13262341469e-008
  +1.13302023151e-008
  +1.59988673305e-004
  +1.60011330663e-004
  +1.59988673305e-004
  +1.60011330663e-004
  +1.59988673305e-004
  +1.60011330663e-004
  +1.59988673305e-004
  +1.60011330663e-004
  +1.59988673305e-004
  +1.60011330663e-004
  -3.03103809551e-008
  -3.03103809551e-008
  +3.03143491233e-008
  -3.03103809551e-008
  +3.03143491233e-008
  -3.03103809551e-008
  +3.03143491233e-008
  -3.03103809551e-008
  +3.03143491233e-008
  -3.03103809551e-008
  +1.59985962388e-004
  +1.60014041580e-004
  +1.59985962388e-004
  +1.60014041580e-004
  +1.59985962388e-004
  +1.60014041580e-004
  +1.59985962388e-004
  +1.60014041580e-004
  +1.59985962388e-004
  +1.60014041580e-004
  -1.51717011398e-008
  +1.51756693079e-008
  -1.51717011398e-008
  +1.51756693079e-008
  -1.51717011398e-008
  +1.51756693079e-008
  -1.51717011398e-008
  +1.51756693079e-008
  -1.51717011398e-008
  +1.51756693079e-008
  +1.59984138564e-004
  +1.60015865405e-004
  +1.59984138564e-004
  +1.60015865405e-004
  +1.59984138564e-004
  +1.60015865405e-004
  +1.59984138564e-004
  +1.60015865405e-004
  +1.59984138564e-004
  +1.60015865405e-004
</dep>
<dep Idrain1.It time>
  +1.98408409484e-012
  +1.60000001984e-004
  +1.60000001984e-004
  +1.60000001984e-004
  +1.60000001984e-004
  +1.60000001984e-004
  +1.60000001984e-004
  +1.60000001984e-004
  +1.60000001984e-004
  +1.60000001984e-004
  +1.98408409484e-012
  +1.98408409484e-012
  +1.98408409484e-012
  +1.98408409484e-012
  +1.98408409484e-012
  +1.98408409484e-012
  +1.98408409484e-012
  +1.98408409484e-012
  +1.98408409484e-012
  +1.98408409484e-012
  +1.60000001984e-004
  +1.60000001984e-004
  +1.60000001984e-004
  +1.60000001984e-004
  +1.60000001984e-004
  +1.60000001984e-004
  +1.60000001984e-004
  +1.60000001984e-004
  +1.60000001984e-004
  +1.60000001984e-004
  +1.98408409484e-012
  +1.98408409484e-012
  +1.98408409484e-012
  +1.98408409484e-012
  +1.98408409484e-012
  +1.98408409484e-012
  +1.98408409484e-012
  +1.98408409484e-012
  +1.98408409484e-012
  +1.98408409484e-012
  +1.60000001984e-004
  +1.60000001984e-004
  +1.60000001984e-004
  +1.60000001984e-004
  +1.60000001984e-004
  +1.60000001984e-004
  +1.60000001984e-004
  +1.60000001984e-004
  +1.60000001984e-004
  +1.60000001984e-004
  +1.98408409484e-012
  +1.98408409484e-012
  +1.98408409484e-012
  +1.98408409484e-012
  +1.98408409484e-012
  +1.98408409484e-012
  +1.98408409484e-012
  +1.98408409484e-012
  +1.98408409484e-012
  +1.98408409484e-012
  +1.60000001984e-004
  +1.60000001984e-004
  +1.60000001984e-004
  +1.60000001984e-004
  +1.60000001984e-004
  +1.60000001984e-004
  +1.60000001984e-004
  +1.60000001984e-004
  +1.60000001984e-004
  +1.60000001984e-004
  +1.98408409484e-012
  +1.98408409484e-012
  +1.98408409484e-012
  +1.98408409484e-012
  +1.98408409484e-012
  +1.98408409484e-012
  +1.98408409484e-012
  +1.98408409484e-012
  +1.98408409484e-012
  +1.98408409484e-012
  +1.60000001984e-004
  +1.60000001984e-004
  +1.60000001984e-004
  +1.60000001984e-004
  +1.60000001984e-004
  +1.60000001984e-004
  +1.60000001984e-004
  +1.60000001984e-004
  +1.60000001984e-004
  +1.60000001984e-004
  +1.98408409484e-012
  +1.98408409484e-012
  +1.98408409484e-012
  +1.98408409484e-012
  +1.98408409484e-012
  +1.98408409484e-012
  +1.98408409484e-012
  +1.98408409484e-012
  +1.98408409484e-012
  +1.98408409484e-012
</dep>
<dep Vgate2.Vt time>
  +0.00000000000e+000
  +5.00000000000e+000
  +5.00000000000e+000
  +5.00000000000e+000
  +5.00000000000e+000
  +5.00000000000e+000
  +5.00000000000e+000
  +5.00000000000e+000
  +5.00000000000e+000
  +5.00000000000e+000
  +0.00000000000e+000
  +0.00000000000e+000
  +0.00000000000e+000
  +0.00000000000e+000
  +0.00000000000e+000
  +0.00000000000e+000
  +0.00000000000e+000
  +0.00000000000e+000
  +0.00000000000e+000
  +0.00000000000e+000
  +5.00000000000e+000
  +5.00000000000e+000
  +5.00000000000e+000
  +5.00000000000e+000
  +5.00000000000e+000
  +5.00000000000e+000
  +5.00000000000e+000
  +5.00000000000e+000
  +5.00000000000e+000
  +5.00000000000e+000
  +0.00000000000e+000
  +0.00000000000e+000
  +0.00000000000e+000
  +0.00000000000e+000
  +0.00000000000e+000
  +0.00000000000e+000
  +0.00000000000e+000
  +0.00000000000e+000
  +0.00000000000e+000
  +0.00000000000e+000
  +5.00000000000e+000
  +5.00000000000e+000
  +5.00000000000e+000
  +5.00000000000e+000
  +5.00000000000e+000
  +5.00000000000e+000
  +5.00000000000e+000
  +5.00000000000e+000
  +5.00000000000e+000
  +5.00000000000e+000
  +0.00000000000e+000
  +0.00000000000e+000
  +0.00000000000e+000
  +0.00000000000e+000
  +0.00000000000e+000
  +0.00000000000e+000
  +0.00000000000e+000
  +0.00000000000e+000
  +0.00000000000e+000
  +0.00000000000e+000
  +5.00000000000e+000
  +5.00000000000e+000
  +5.00000000000e+000
  +5.00000000000e+000
  +5.00000000000e+000
  +5.00000000000e+000
  +5.00000000000e+000
  +5.00000000000e+000
  +5.00000000000e+000
  +5.00000000000e+000
  +0.00000000000e+000
  +0.00000000000e+000
  +0.00000000000e+000
  +0.00000000000e+000
  +0.00000000000e+000
  +0.00000000000e+000
  +0.00000000000e+000
  +0.00000000000e+000
  +0.00000000000e+000
  +0.00000000000e+000
  +5.00000000000e+000
  +5.00000000000e+000
  +5.00000000000e+000
  +5.00000000000e+000
  +5.00000000000e+000
  +5.00000000000e+000
  +5.00000000000e+000
  +5.00000000000e+000
  +5.00000000000e+000
  +5.00000000000e+000
  +0.00000000000e+000
  +0.00000000000e+000
  +0.00000000000e+000
  +0.00000000000e+000
  +0.00000000000e+000
  +0.00000000000e+000
  +0.00000000000e+000
  +0.00000000000e+000
  +0.00000000000e+000
  +0.00000000000e+000
</dep>
<dep _net2.Vt time>
  +5.00000000000e+000
  +5.00000000000e+000
  +5.00000000000e+000
  +5.00000000000e+000
  +5.00000000000e+000
  +5.00000000000e+000
  +5.00000000000e+000
  +5.00000000000e+000
  +5.00000000000e+000
  +5.00000000000e+000
  +5.00000000000e+000
  +5.00000000000e+000
  +5.00000000000e+000
  +5.00000000000e+000
  +5.00000000000e+000
  +5.00000000000e+000
  +5.00000000000e+000
  +5.00000000000e+000
  +5.00000000000e+000
  +5.00000000000e+000
  +5.00000000000e+000
  +5.00000000000e+000
  +5.00000000000e+000
  +5.00000000000e+000
  +5.00000000000e+000
  +5.00000000000e+000
  +5.00000000000e+000
  +5.00000000000e+000
  +5.00000000000e+000
  +5.00000000000e+000
  +5.00000000000e+000
  +5.00000000000e+000
  +5.00000000000e+000
  +5.00000000000e+000
  +5.00000000000e+000
  +5.00000000000e+000
  +5.00000000000e+000
  +5.00000000000e+000
  +5.00000000000e+000
  +5.00000000000e+000
  +5.00000000000e+000
  +5.00000000000e+000
  +5.00000000000e+000
  +5.00000000000e+000
  +5.00000000000e+000
  +5.00000000000e+000
  +5.00000000000e+000
  +5.00000000000e+000
  +5.00000000000e+000
  +5.00000000000e+000
  +5.00000000000e+000
  +5.00000000000e+000
  +5.00000000000e+000
  +5.00000000000e+000
  +5.00000000000e+000
  +5.00000000000e+000
  +5.00000000000e+000
