<Qucs Dataset 0.0.16>
<indep time 11>
  +0.00000000000e+000
  +1.00000000000e-004
  +2.00000000000e-004
  +3.00000000000e-004
  +4.00000000000e-004
  +5.00000000000e-004
  +6.00000000000e-004
  +7.00000000000e-004
  +8.00000000000e-004
  +9.00000000000e-004
  +1.00000000000e-003
</indep>
<indep groundVoltage 1>
  +0.00000000000e+000
</indep>
<indep gateBaseVoltage 3>
  +0.00000000000e+000
  +5.00000000000e+000
  +1.00000000000e+001
</indep>
<indep drainCollectorVoltage 1>
  +5.00000000000e+000
</indep>
<dep V3.It time>
  +9.92501927578e+151
  +9.92501927578e+151
  +9.92501927578e+151
  +9.92501927578e+151
  +9.92501927578e+151
  +9.92501927578e+151
  +9.92501927578e+151
  +9.92501927578e+151
  +9.92501927578e+151
  +9.92501927578e+151
  +9.92501927578e+151
</dep>
<dep V1.It time>
  -9.82675175820e+149
  -9.82675175820e+149
  -9.82675175820e+149
  -9.82675175820e+149
  -9.82675175820e+149
  -9.82675175820e+149
  -9.82675175820e+149
  -9.82675175820e+149
  -9.82675175820e+149
  -9.82675175820e+149
  -9.82675175820e+149
</dep>
<dep V2.It time>
  -9.82675175820e+151
  -9.82675175820e+151
  -9.82675175820e+151
  -9.82675175820e+151
  -9.82675175820e+151
  -9.82675175820e+151
  -9.82675175820e+151
  -9.82675175820e+151
  -9.82675175820e+151
  -9.82675175820e+151
  -9.82675175820e+151
</dep>
<dep Iq1.It time>
  +9.91299740654e+069
  +9.91299740654e+069
  +9.91299740654e+069
  +9.91299740654e+069
  +9.91299740654e+069
  +9.91299740654e+069
  +9.91299740654e+069
  +9.91299740654e+069
  +9.91299740654e+069
  +9.91299740654e+069
  +9.91299740654e+069
</dep>
<dep Iq2.It time>
  +9.91299740654e+069
  +9.91299740654e+069
  +9.91299740654e+069
  +9.91299740654e+069
  +9.91299740654e+069
  +9.91299740654e+069
  +9.91299740654e+069
  +9.91299740654e+069
  +9.91299740654e+069
  +9.91299740654e+069
  +9.91299740654e+069
</dep>
<dep Iq3.It time>
  +9.82675175820e+151
  +9.82675175820e+151
  +9.82675175820e+151
  +9.82675175820e+151
  +9.82675175820e+151
  +9.82675175820e+151
  +9.82675175820e+151
  +9.82675175820e+151
  +9.82675175820e+151
  +9.82675175820e+151
  +9.82675175820e+151
</dep>
<dep Iq4.It time>
  +0.00000000000e+000
  +0.00000000000e+000
  +0.00000000000e+000
  +0.00000000000e+000
  +0.00000000000e+000
  +0.00000000000e+000
  +0.00000000000e+000
  +0.00000000000e+000
  +0.00000000000e+000
  +0.00000000000e+000
  +0.00000000000e+000
</dep>
<dep V4.It time>
  +9.10560418298e-021
  -9.03420815636e-021
  -9.03405306000e-021
  -9.03413060818e-021
  -9.03405306000e-021
  -9.03413060818e-021
  -9.03413060818e-021
  -9.03413060818e-021
  -9.03413060818e-021
  -9.03413060818e-021
  -9.03413060818e-021
</dep>
<dep _net0.Vt time>
  +0.00000000000e+000
  +0.00000000000e+000
  +0.00000000000e+000
  +0.00000000000e+000
  +0.00000000000e+000
  +0.00000000000e+000
  +0.00000000000e+000
  +0.00000000000e+000
  +0.00000000000e+000
  +0.00000000000e+000
  +0.00000000000e+000
</dep>
<dep Vss.Vt time>
  -7.38612730006e-019
  -7.38612730006e-019
  -7.38612730006e-019
  -7.38612730006e-019
  -7.38612730006e-019
  -7.38612730006e-019
  -7.38612730006e-019
  -7.38612730006e-019
  -7.38612730006e-019
  -7.38612730006e-019
  -7.38612730006e-019
</dep>
<dep Vq2.Vt time>
  +5.00000000000e+000
  +5.00000000000e+000
  +5.00000000000e+000
  +5.00000000000e+000
  +5.00000000000e+000
  +5.00000000000e+000
  +5.00000000000e+000
  +5.00000000000e+000
  +5.00000000000e+000
  +5.00000000000e+000
  +5.00000000000e+000
</dep>
<dep Vq1.Vt time>
  +5.00000000000e+000
  +5.00000000000e+000
  +5.00000000000e+000
  +5.00000000000e+000
  +5.00000000000e+000
  +5.00000000000e+000
  +5.00000000000e+000
  +5.00000000000e+000
  +5.00000000000e+000
  +5.00000000000e+000
  +5.00000000000e+000
</dep>
<dep Vgb.Vt time>
  +1.00000000000e+001
  +1.00000000000e+001
  +1.00000000000e+001
  +1.00000000000e+001
  +1.00000000000e+001
  +1.00000000000e+001
  +1.00000000000e+001
  +1.00000000000e+001
  +1.00000000000e+001
  +1.00000000000e+001
  +1.00000000000e+001
</dep>
<dep Vq4.Vt time>
  +5.00000000000e+000
  +5.00000000000e+000
  +5.00000000000e+000
  +5.00000000000e+000
  +5.00000000000e+000
  +5.00000000000e+000
  +5.00000000000e+000
  +5.00000000000e+000
  +5.00000000000e+000
  +5.00000000000e+000
  +5.00000000000e+000
</dep>
<dep Vdd.Vt time>
  +5.00000000000e+000
  +5.00000000000e+000
  +5.00000000000e+000
  +5.00000000000e+000
  +5.00000000000e+000
  +5.00000000000e+000
  +5.00000000000e+000
  +5.00000000000e+000
  +5.00000000000e+000
  +5.00000000000e+000
  +5.00000000000e+000
</dep>
<dep Vq3.Vt time>
  +5.00000000000e+000
  +5.00000000000e+000
  +5.00000000000e+000
  +5.00000000000e+000
  +5.00000000000e+000
  +5.00000000000e+000
  +5.00000000000e+000
  +5.00000000000e+000
  +5.00000000000e+000
  +5.00000000000e+000
  +5.00000000000e+000
</dep>
<dep V3.I groundVoltage gateBaseVoltage drainCollectorVoltage>
  +1.99251247871e+070
  +1.99261160869e+070
  +9.92501927578e+151
</dep>
<dep V1.I groundVoltage gateBaseVoltage drainCollectorVoltage>
  +9.91299740654e+065
  -9.91299740654e+065
  -9.82675175820e+149
</dep>
<dep V2.I groundVoltage gateBaseVoltage drainCollectorVoltage>
  -1.99261160869e+070
  -1.99251247871e+070
  -9.82675175820e+151
</dep>
<dep Iq1.I groundVoltage gateBaseVoltage drainCollectorVoltage>
  +9.91299740654e+069
  +9.91299740654e+069
  +9.91299740654e+069
</dep>
<dep Iq2.I groundVoltage gateBaseVoltage drainCollectorVoltage>
  +9.91299740654e+069
  +9.91299740654e+069
  +9.91299740654e+069
</dep>
<dep Iq3.I groundVoltage gateBaseVoltage drainCollectorVoltage>
  +6.99999962839e-016
  +9.91299740654e+067
  +9.82675175820e+151
</dep>
<dep Iq4.I groundVoltage gateBaseVoltage drainCollectorVoltage>
  +1.00121273806e+068
  +0.00000000000e+000
  +0.00000000000e+000
</dep>
<dep V4.I groundVoltage gateBaseVoltage drainCollectorVoltage>
  +0.00000000000e+000
  +0.00000000000e+000
  +0.00000000000e+000
</dep>
<dep _net0.V groundVoltage gateBaseVoltage drainCollectorVoltage>
  +0.00000000000e+000
  +0.00000000000e+000
  +0.00000000000e+000
</dep>
<dep Vss.V groundVoltage gateBaseVoltage drainCollectorVoltage>
  +0.00000000000e+000
  +1.38743996760e-018
  -7.38612730006e-019
</dep>
<dep Vq2.V groundVoltage gateBaseVoltage drainCollectorVoltage>
  +5.00000000000e+000
  +5.00000000000e+000
  +5.00000000000e+000
</dep>
<dep Vq1.V groundVoltage gateBaseVoltage drainCollectorVoltage>
  +5.00000000000e+000
  +5.00000000000e+000
  +5.00000000000e+000
</dep>
<dep Vgb.V groundVoltage gateBaseVoltage drainCollectorVoltage>
  +1.38743996760e-018
  +5.00000000000e+000
  +1.00000000000e+001
</dep>
<dep Vq4.V groundVoltage gateBaseVoltage drainCollectorVoltage>
  +5.00000000000e+000
  +5.00000000000e+000
  +5.00000000000e+000
</dep>
<dep Vdd.V groundVoltage gateBaseVoltage drainCollectorVoltage>
  +5.00000000000e+000
  +5.00000000000e+000
  +5.00000000000e+000
</dep>
<dep Vq3.V groundVoltage gateBaseVoltage drainCollectorVoltage>
  +5.00000000000e+000
  +5.00000000000e+000
  +5.00000000000e+000
</dep>
