<Qucs Dataset 0.0.16>
<indep Versus.0001 101>
  +1.00000000000e-008
  +1.14815362150e-008
  +1.31825673856e-008
  +1.51356124844e-008
  +1.73780082875e-008
  +1.99526231497e-008
  +2.29086765277e-008
  +2.63026799190e-008
  +3.01995172040e-008
  +3.46736850453e-008
  +3.98107170553e-008
  +4.57088189615e-008
  +5.24807460250e-008
  +6.02559586074e-008
  +6.91830970919e-008
  +7.94328234724e-008
  +9.12010839356e-008
  +1.04712854805e-007
  +1.20226443462e-007
  +1.38038426460e-007
  +1.58489319246e-007
  +1.81970085861e-007
  +2.08929613085e-007
  +2.39883291902e-007
  +2.75422870334e-007
  +3.16227766017e-007
  +3.63078054770e-007
  +4.16869383470e-007
  +4.78630092323e-007
  +5.49540873858e-007
  +6.30957344480e-007
  +7.24435960075e-007
  +8.31763771103e-007
  +9.54992586021e-007
  +1.09647819614e-006
  +1.25892541179e-006
  +1.44543977075e-006
  +1.65958690744e-006
  +1.90546071796e-006
  +2.18776162395e-006
  +2.51188643151e-006
  +2.88403150313e-006
  +3.31131121483e-006
  +3.80189396321e-006
  +4.36515832240e-006
  +5.01187233627e-006
  +5.75439937337e-006
  +6.60693448008e-006
  +7.58577575029e-006
  +8.70963589956e-006
  +1.00000000000e-005
  +1.14815362150e-005
  +1.31825673856e-005
  +1.51356124844e-005
  +1.73780082875e-005
  +1.99526231497e-005
  +2.29086765277e-005
  +2.63026799190e-005
  +3.01995172040e-005
  +3.46736850453e-005
  +3.98107170553e-005
  +4.57088189615e-005
  +5.24807460250e-005
  +6.02559586074e-005
  +6.91830970919e-005
  +7.94328234724e-005
  +9.12010839356e-005
  +1.04712854805e-004
  +1.20226443462e-004
  +1.38038426460e-004
  +1.58489319246e-004
  +1.81970085861e-004
  +2.08929613085e-004
  +2.39883291902e-004
  +2.75422870334e-004
  +3.16227766017e-004
  +3.63078054770e-004
  +4.16869383470e-004
  +4.78630092323e-004
  +5.49540873858e-004
  +6.30957344480e-004
  +7.24435960075e-004
  +8.31763771103e-004
  +9.54992586021e-004
  +1.09647819614e-003
  +1.25892541179e-003
  +1.44543977075e-003
  +1.65958690744e-003
  +1.90546071796e-003
  +2.18776162395e-003
  +2.51188643151e-003
  +2.88403150313e-003
  +3.31131121483e-003
  +3.80189396321e-003
  +4.36515832240e-003
  +5.01187233627e-003
  +5.75439937337e-003
  +6.60693448008e-003
  +7.58577575029e-003
  +8.70963589956e-003
  +1.00000000000e-002
</indep>
<indep Ib 101>
  +1.00000000000e-008
  +1.14815362150e-008
  +1.31825673856e-008
  +1.51356124844e-008
  +1.73780082875e-008
  +1.99526231497e-008
  +2.29086765277e-008
  +2.63026799190e-008
  +3.01995172040e-008
  +3.46736850453e-008
  +3.98107170553e-008
  +4.57088189615e-008
  +5.24807460250e-008
  +6.02559586074e-008
  +6.91830970919e-008
  +7.94328234724e-008
  +9.12010839356e-008
  +1.04712854805e-007
  +1.20226443462e-007
  +1.38038426460e-007
  +1.58489319246e-007
  +1.81970085861e-007
  +2.08929613085e-007
  +2.39883291902e-007
  +2.75422870334e-007
  +3.16227766017e-007
  +3.63078054770e-007
  +4.16869383470e-007
  +4.78630092323e-007
  +5.49540873858e-007
  +6.30957344480e-007
  +7.24435960075e-007
  +8.31763771103e-007
  +9.54992586021e-007
  +1.09647819614e-006
  +1.25892541179e-006
  +1.44543977075e-006
  +1.65958690744e-006
  +1.90546071796e-006
  +2.18776162395e-006
  +2.51188643151e-006
  +2.88403150313e-006
  +3.31131121483e-006
  +3.80189396321e-006
  +4.36515832240e-006
  +5.01187233627e-006
  +5.75439937337e-006
  +6.60693448008e-006
  +7.58577575029e-006
  +8.70963589956e-006
  +1.00000000000e-005
  +1.14815362150e-005
  +1.31825673856e-005
  +1.51356124844e-005
  +1.73780082875e-005
  +1.99526231497e-005
  +2.29086765277e-005
  +2.63026799190e-005
  +3.01995172040e-005
  +3.46736850453e-005
  +3.98107170553e-005
  +4.57088189615e-005
  +5.24807460250e-005
  +6.02559586074e-005
  +6.91830970919e-005
  +7.94328234724e-005
  +9.12010839356e-005
  +1.04712854805e-004
  +1.20226443462e-004
  +1.38038426460e-004
  +1.58489319246e-004
  +1.81970085861e-004
  +2.08929613085e-004
  +2.39883291902e-004
  +2.75422870334e-004
  +3.16227766017e-004
  +3.63078054770e-004
  +4.16869383470e-004
  +4.78630092323e-004
  +5.49540873858e-004
  +6.30957344480e-004
  +7.24435960075e-004
  +8.31763771103e-004
  +9.54992586021e-004
  +1.09647819614e-003
  +1.25892541179e-003
  +1.44543977075e-003
  +1.65958690744e-003
  +1.90546071796e-003
  +2.18776162395e-003
  +2.51188643151e-003
  +2.88403150313e-003
  +3.31131121483e-003
  +3.80189396321e-003
  +4.36515832240e-003
  +5.01187233627e-003
  +5.75439937337e-003
  +6.60693448008e-003
  +7.58577575029e-003
  +8.70963589956e-003
  +1.00000000000e-002
</indep>
<dep Beta_vs_Ic Versus.0001>
  +8.63337625723e-001
  +9.89850750175e-001
  +1.13481315869e+000
  +1.30087266397e+000
  +1.49104568662e+000
  +1.70876315584e+000
  +1.95792103312e+000
  +2.24293917681e+000
  +2.56882037719e+000
  +2.94121770526e+000
  +3.36650260300e+000
  +3.85183811268e+000
  +4.40525278797e+000
  +5.03571229797e+000
  +5.75319099395e+000
  +6.56873183764e+000
  +7.49449801770e+000
  +8.54380432514e+000
  +9.73112424330e+000
  +1.10720642445e+001
  +1.25832955055e+001
  +1.42824338693e+001
  +1.61878593069e+001
  +1.83184644392e+001
  +2.06933277212e+001
  +2.33313063239e+001
  +2.62505517413e+001
  +2.94679550514e+001
  +3.29985374827e+001
  +3.68548089079e+001
  +4.10461247590e+001
  +4.55780769658e+001
  +5.04519584542e+001
  +5.56643401600e+001
  +6.12067947112e+001
  +6.70657932939e+001
  +7.32227897128e+001
  +7.96544923383e+001
  +8.63333103068e+001
  +9.32279477776e+001
  +1.00304109828e+002
  +1.07525278231e+002
  +1.14853512870e+002
  +1.22250237135e+002
  +1.29676970779e+002
  +1.37095981215e+002
  +1.44470832598e+002
  +1.51766820578e+002
  +1.58951288438e+002
  +1.65993826722e+002
  +1.72866363710e+002
  +1.79543157513e+002
  +1.86000703008e+002
  +1.92217567948e+002
  +1.98174172905e+002
  +2.03852529724e+002
  +2.09235952628e+002
  +2.14308755770e+002
  +2.19055950674e+002
  +2.23462956897e+002
  +2.27515339406e+002
  +2.31198586462e+002
  +2.34497942234e+002
  +2.37398308587e+002
  +2.39884230334e+002
  +2.41939977195e+002
  +2.43549733508e+002
  +2.44697902860e+002
  +2.45369529076e+002
  +2.45550827282e+002
  +2.45229809338e+002
  +2.44396977486e+002
  +2.43046049675e+002
  +2.41174671213e+002
  +2.38785061667e+002
  +2.35884544895e+002
  +2.32485914463e+002
  +2.28607596810e+002
  +2.24273589304e+002
  +2.19513168251e+002
  +2.14360380468e+002
  +2.08853348938e+002
  +2.03033436119e+002
  +1.96944316387e+002
  +1.90631011412e+002
  +1.84138939431e+002
  +1.77513022424e+002
  +1.70796885633e+002
  +1.64032173151e+002
  +1.57257992714e+002
  +1.50510493391e+002
  +1.43822572121e+002
  +1.37223699266e+002
  +1.30739849551e+002
  +1.24393522624e+002
  +1.18203836822e+002
  +1.12186680127e+002
  +1.06354903466e+002
  +1.00718543084e+002
  +9.52850606376e+001
  +9.00595914849e+001
</dep>
<dep Beta Ib>
  +8.63337625723e-001
  +9.89850750175e-001
  +1.13481315869e+000
  +1.30087266397e+000
  +1.49104568662e+000
  +1.70876315584e+000
  +1.95792103312e+000
  +2.24293917681e+000
  +2.56882037719e+000
  +2.94121770526e+000
  +3.36650260300e+000
  +3.85183811268e+000
  +4.40525278797e+000
  +5.03571229797e+000
  +5.75319099395e+000
  +6.56873183764e+000
  +7.49449801770e+000
  +8.54380432514e+000
  +9.73112424330e+000
  +1.10720642445e+001
  +1.25832955055e+001
  +1.42824338693e+001
  +1.61878593069e+001
  +1.83184644392e+001
  +2.06933277212e+001
  +2.33313063239e+001
  +2.62505517413e+001
  +2.94679550514e+001
  +3.29985374827e+001
  +3.68548089079e+001
  +4.10461247590e+001
  +4.55780769658e+001
  +5.04519584542e+001
  +5.56643401600e+001
  +6.12067947112e+001
  +6.70657932939e+001
  +7.32227897128e+001
  +7.96544923383e+001
  +8.63333103068e+001
  +9.32279477776e+001
  +1.00304109828e+002
  +1.07525278231e+002
  +1.14853512870e+002
  +1.22250237135e+002
  +1.29676970779e+002
  +1.37095981215e+002
  +1.44470832598e+002
  +1.51766820578e+002
  +1.58951288438e+002
  +1.65993826722e+002
  +1.72866363710e+002
  +1.79543157513e+002
  +1.86000703008e+002
  +1.92217567948e+002
  +1.98174172905e+002
  +2.03852529724e+002
  +2.09235952628e+002
  +2.14308755770e+002
  +2.19055950674e+002
  +2.23462956897e+002
  +2.27515339406e+002
  +2.31198586462e+002
  +2.34497942234e+002
  +2.37398308587e+002
  +2.39884230334e+002
  +2.41939977195e+002
  +2.43549733508e+002
  +2.44697902860e+002
  +2.45369529076e+002
  +2.45550827282e+002
  +2.45229809338e+002
  +2.44396977486e+002
  +2.43046049675e+002
  +2.41174671213e+002
  +2.38785061667e+002
  +2.35884544895e+002
  +2.32485914463e+002
  +2.28607596810e+002
  +2.24273589304e+002
  +2.19513168251e+002
  +2.14360380468e+002
  +2.08853348938e+002
  +2.03033436119e+002
  +1.96944316387e+002
  +1.90631011412e+002
  +1.84138939431e+002
  +1.77513022424e+002
  +1.70796885633e+002
  +1.64032173151e+002
  +1.57257992714e+002
  +1.50510493391e+002
  +1.43822572121e+002
  +1.37223699266e+002
  +1.30739849551e+002
  +1.24393522624e+002
  +1.18203836822e+002
  +1.12186680127e+002
  +1.06354903466e+002
  +1.00718543084e+002
  +9.52850606376e+001
  +9.00595914849e+001
</dep>
<dep Ic Ib>
  +8.63337625723e-009
  +1.13650072356e-008
  +1.49597509345e-008
  +1.96895045334e-008
  +2.59114042991e-008
  +3.40943073005e-008
  +4.48533796144e-008
  +5.89953112454e-008
  +7.75771351750e-008
  +1.01982856362e-007
  +1.34022882594e-007
  +1.76062970962e-007
  +2.31190952742e-007
  +3.03431671785e-007
  +3.98023571123e-007
  +5.21772916497e-007
  +6.83506342767e-007
  +8.94646141781e-007
  +1.16993845866e-006
  +1.52837032598e-006
  +1.99431793855e-006
  +2.59897571749e-006
  +3.38212318168e-006
  +4.39429355226e-006
  +5.69941571774e-006
  +7.37800687707e-006
  +9.53099926286e-006
  +1.22842882544e-005
  +1.57940930418e-005
  +2.02532238931e-005
  +2.58983538791e-005
  +3.30183979451e-005
  +4.19641112233e-005
  +5.31590321586e-005
  +6.71119158566e-005
  +8.44308314398e-005
  +1.05839132376e-004
  +1.32193552603e-004
  +1.64504731441e-004
  +2.03960526427e-004
  +2.51952532502e-004
  +3.10106289800e-004
  +3.80315725228e-004
  +4.64782438565e-004
  +5.66060508218e-004
  +6.87107555666e-004
  +8.31342868575e-004
  +1.00271343981e-003
  +1.20576882931e-003
  +1.44574579233e-003
  +1.72866363710e-003
  +2.06143126513e-003
  +2.45196680117e-003
  +2.90933062114e-003
  +3.44387241910e-003
  +4.06739270369e-003
  +4.79331875671e-003
  +5.63689460685e-003
  +6.61538395101e-003
  +7.74828418674e-003
  +9.05754880285e-003
  +1.05678143328e-002
  +1.23066269498e-002
  +1.43046626557e-002
  +1.65959339980e-002
  +1.92179754994e-002
  +2.22119996881e-002
  +2.56230159733e-002
  +2.94999058147e-002
  +3.38954498141e-002
  +3.88663055409e-002
  +4.44729389772e-002
  +5.07795171206e-002
  +5.78537740540e-002
  +6.57668670773e-002
  +7.45932426699e-002
  +8.44105335846e-002
  +9.52995079386e-002
  +1.07344088754e-001
  +1.20631458304e-001
  +1.35252256422e-001
  +1.51300876352e-001
  +1.68875856487e-001
  +1.88080362009e-001
  +2.09022747522e-001
  +2.31817190151e-001
  +2.56584382437e-001
  +2.83452275228e-001
  +3.12556862421e-001
  +3.44043001519e-001
  +3.78065266150e-001
  +4.14788828857e-001
  +4.54390374319e-001
  +4.97059044760e-001
  +5.42997420537e-001
  +5.92422539807e-001
  +6.45566961825e-001
  +7.02679878833e-001
  +7.64028281733e-001
  +8.29898184821e-001
  +9.00595914849e-001
</dep>
<dep V1.I Ib>
  -8.63337625723e-009
  -1.13650072356e-008
  -1.49597509345e-008
  -1.96895045334e-008
  -2.59114042991e-008
  -3.40943073005e-008
  -4.48533796144e-008
  -5.89953112454e-008
  -7.75771351750e-008
  -1.01982856362e-007
  -1.34022882594e-007
  -1.76062970962e-007
  -2.31190952742e-007
  -3.03431671785e-007
  -3.98023571123e-007
  -5.21772916497e-007
  -6.83506342767e-007
  -8.94646141781e-007
  -1.16993845866e-006
  -1.52837032598e-006
  -1.99431793855e-006
  -2.59897571749e-006
  -3.38212318168e-006
  -4.39429355226e-006
  -5.69941571774e-006
  -7.37800687707e-006
  -9.53099926286e-006
  -1.22842882544e-005
  -1.57940930418e-005
  -2.02532238931e-005
  -2.58983538791e-005
  -3.30183979451e-005
  -4.19641112233e-005
  -5.31590321586e-005
  -6.71119158566e-005
  -8.44308314398e-005
  -1.05839132376e-004
  -1.32193552603e-004
  -1.64504731441e-004
  -2.03960526427e-004
  -2.51952532502e-004
  -3.10106289800e-004
  -3.80315725228e-004
  -4.64782438565e-004
  -5.66060508218e-004
  -6.87107555666e-004
  -8.31342868575e-004
  -1.00271343981e-003
  -1.20576882931e-003
  -1.44574579233e-003
  -1.72866363710e-003
  -2.06143126513e-003
  -2.45196680117e-003
  -2.90933062114e-003
  -3.44387241910e-003
  -4.06739270369e-003
  -4.79331875671e-003
  -5.63689460685e-003
  -6.61538395101e-003
  -7.74828418674e-003
  -9.05754880285e-003
  -1.05678143328e-002
  -1.23066269498e-002
  -1.43046626557e-002
  -1.65959339980e-002
  -1.92179754994e-002
  -2.22119996881e-002
  -2.56230159733e-002
  -2.94999058147e-002
  -3.38954498141e-002
  -3.88663055409e-002
  -4.44729389772e-002
  -5.07795171206e-002
  -5.78537740540e-002
  -6.57668670773e-002
  -7.45932426699e-002
  -8.44105335846e-002
  -9.52995079386e-002
  -1.07344088754e-001
  -1.20631458304e-001
  -1.35252256422e-001
  -1.51300876352e-001
  -1.68875856487e-001
  -1.88080362009e-001
  -2.09022747522e-001
  -2.31817190151e-001
  -2.56584382437e-001
  -2.83452275228e-001
  -3.12556862421e-001
  -3.44043001519e-001
  -3.78065266150e-001
  -4.14788828857e-001
  -4.54390374319e-001
  -4.97059044760e-001
  -5.42997420537e-001
  -5.92422539807e-001
  -6.45566961825e-001
  -7.02679878833e-001
  -7.64028281733e-001
  -8.29898184821e-001
  -9.00595914849e-001
</dep>
<dep _net0.V Ib>
  +3.54062497706e-001
  +3.61178076544e-001
  +3.68291570477e-001
  +3.75402425495e-001
  +3.82510041763e-001
  +3.89613762152e-001
  +3.96712862685e-001
  +4.03806540044e-001
  +4.10893899531e-001
  +4.17973941342e-001
  +4.25045546482e-001
  +4.32107461257e-001
  +4.39158281230e-001
  +4.46196434569e-001
  +4.53220164754e-001
  +4.60227513240e-001
  +4.67216302716e-001
  +4.74184121171e-001
  +4.81128308182e-001
  +4.88045943524e-001
  +4.94933840425e-001
  +5.01788543682e-001
  +5.08606334890e-001
  +5.15383245688e-001
  +5.22115080749e-001
  +5.28797451542e-001
  +5.35425821639e-001
  +5.41995563850e-001
  +5.48502028746e-001
  +5.54940623001e-001
  +5.61306895641e-001
  +5.67596628842e-001
  +5.73805929594e-001
  +5.79931318035e-001
  +5.85969808104e-001
  +5.91918976651e-001
  +5.97777017736e-001
  +6.03542780009e-001
  +6.09215786196e-001
  +6.14796235124e-001
  +6.20284987725e-001
  +6.25683539607e-001
  +6.30993983270e-001
  +6.36218963476e-001
  +6.41361629292e-001
  +6.46425586083e-001
  +6.51414850377e-001
  +6.56333810004e-001
  +6.61187191396e-001
  +6.65980035424e-001
  +6.70717682704e-001
  +6.75405768882e-001
  +6.80050230140e-001
  +6.84657318883e-001
  +6.89233629385e-001
  +6.93786132996e-001
  +6.98322222386e-001
  +7.02849764124e-001
  +7.07377158740e-001
  +7.11913407206e-001
  +7.16468182528e-001
  +7.21051904883e-001
  +7.25675818424e-001
  +7.30352067557e-001
  +7.35093770278e-001
  +7.39915085897e-001
  +7.44831274498e-001
  +7.49858745590e-001
  +7.55015093878e-001
  +7.60319120772e-001
  +7.65790841343e-001
  +7.71451477765e-001
  +7.77323441776e-001
  +7.83430310316e-001
  +7.89796799839e-001
  +7.96448745903e-001
  +8.03413095168e-001
  +8.10717916842e-001
  +8.18392439906e-001
  +8.26467121237e-001
  +8.34973748130e-001
  +8.43945577063e-001
  +8.53417508965e-001
  +8.63426299996e-001
  +8.74010806028e-001
  +8.85212258680e-001
  +8.97074570882e-001
  +9.09644670401e-001
  +9.22972860570e-001
  +9.37113208340e-001
  +9.52123960850e-001
  +9.68067992671e-001
  +9.85013286947e-001
  +1.00303345459e+000
  +1.02220829660e+000
  +1.04262441556e+000
  +1.06437588313e+000
  +1.08756497143e+000
  +1.11230295719e+000
  +1.13871100849e+000
  +1.16692116539e+000
</dep>
<dep _net1.V Ib>
  +1.00000000000e+001
  +1.00000000000e+001
  +1.00000000000e+001
  +1.00000000000e+001
  +1.00000000000e+001
  +1.00000000000e+001
  +1.00000000000e+001
  +1.00000000000e+001
  +1.00000000000e+001
  +1.00000000000e+001
  +1.00000000000e+001
  +1.00000000000e+001
  +1.00000000000e+001
  +1.00000000000e+001
  +1.00000000000e+001
  +1.00000000000e+001
  +1.00000000000e+001
  +1.00000000000e+001
  +1.00000000000e+001
  +1.00000000000e+001
  +1.00000000000e+001
  +1.00000000000e+001
  +1.00000000000e+001
  +1.00000000000e+001
  +1.00000000000e+001
  +1.00000000000e+001
  +1.00000000000e+001
  +1.00000000000e+001
  +1.00000000000e+001
  +1.00000000000e+001
  +1.00000000000e+001
  +1.00000000000e+001
  +1.00000000000e+001
  +1.00000000000e+001
  +1.00000000000e+001
  +1.00000000000e+001
  +1.00000000000e+001
  +1.00000000000e+001
  +1.00000000000e+001
  +1.00000000000e+001
  +1.00000000000e+001
  +1.00000000000e+001
  +1.00000000000e+001
  +1.00000000000e+001
  +1.00000000000e+001
  +1.00000000000e+001
  +1.00000000000e+001
  +1.00000000000e+001
  +1.00000000000e+001
  +1.00000000000e+001
  +1.00000000000e+001
  +1.00000000000e+001
  +1.00000000000e+001
  +1.00000000000e+001
  +1.00000000000e+001
  +1.00000000000e+001
  +1.00000000000e+001
  +1.00000000000e+001
  +1.00000000000e+001
  +1.00000000000e+001
  +1.00000000000e+001
  +1.00000000000e+001
  +1.00000000000e+001
  +1.00000000000e+001
  +1.00000000000e+001
  +1.00000000000e+001
  +1.00000000000e+001
  +1.00000000000e+001
  +1.00000000000e+001
  +1.00000000000e+001
  +1.00000000000e+001
  +1.00000000000e+001
  +1.00000000000e+001
  +1.00000000000e+001
  +1.00000000000e+001
  +1.00000000000e+001
  +1.00000000000e+001
  +1.00000000000e+001
  +1.00000000000e+001
  +1.00000000000e+001
  +1.00000000000e+001
  +1.00000000000e+001
  +1.00000000000e+001
  +1.00000000000e+001
  +1.00000000000e+001
  +1.00000000000e+001
  +1.00000000000e+001
  +1.00000000000e+001
  +1.00000000000e+001
  +1.00000000000e+001
  +1.00000000000e+001
  +1.00000000000e+001
  +1.00000000000e+001
  +1.00000000000e+001
  +1.00000000000e+001
  +1.00000000000e+001
  +1.00000000000e+001
  +1.00000000000e+001
  +1.00000000000e+001
  +1.00000000000e+001
  +1.00000000000e+001
</dep>
