<Qucs Dataset 0.0.16>
<indep time 21>
  +0.00000000000e+000
  +1.01010101010e-004
  +2.02020202020e-004
  +3.03030303030e-004
  +4.04040404040e-004
  +5.05050505051e-004
  +6.06060606061e-004
  +7.07070707071e-004
  +8.08080808081e-004
  +9.09090909091e-004
  +1.01010101010e-003
  +1.11111111111e-003
  +1.21212121212e-003
  +1.31313131313e-003
  +1.41414141414e-003
  +1.51515151515e-003
  +1.61616161616e-003
  +1.71717171717e-003
  +1.81818181818e-003
  +1.91919191919e-003
  +2.02020202020e-003
</indep>
<dep V2.It time>
  -1.98408409484e-012
  -1.60000001984e-004
  -1.60000001984e-004
  -1.60000001984e-004
  -1.60000001984e-004
  -1.60000001984e-004
  -1.60000001984e-004
  -1.60000001984e-004
  -1.60000001984e-004
  -1.60000001984e-004
  -1.98408409484e-012
  -1.98408409484e-012
  -1.98408409484e-012
  -1.98408409484e-012
  -1.98408409484e-012
  -1.98408409484e-012
  -1.98408409484e-012
  -1.98408409484e-012
  -1.98408409484e-012
  -1.98408409484e-012
  -1.60000001984e-004
</dep>
<dep V3.It time>
  -5.83162331850e-023
  -6.27460727040e-007
  -6.27460727040e-007
  -6.27460727040e-007
  -6.27460727040e-007
  -6.27460727040e-007
  -6.27460727040e-007
  -6.27460727040e-007
  -6.27460727040e-007
  -6.27460727040e-007
  -6.27348944642e-007
  +6.27348944642e-007
  -6.27348944642e-007
  +6.27348944642e-007
  -6.27348944642e-007
  +6.27348944642e-007
  -6.27348944642e-007
  +6.27348944642e-007
  -6.27348944642e-007
  +6.27348944642e-007
  -6.27283718792e-007
</dep>
<dep V4.It time>
  -1.60000001984e-004
  +5.15551646925e-007
  +5.15551646925e-007
  +5.15551646925e-007
  +5.15551646925e-007
  +5.15551646925e-007
  +5.15551646925e-007
  +5.15551646925e-007
  +5.15551646925e-007
  +5.15551646925e-007
  -1.59484551537e-004
  -1.60515452431e-004
  -1.59484551537e-004
  -1.60515452431e-004
  -1.59484551537e-004
  -1.60515452431e-004
  -1.59484551537e-004
  -1.60515452431e-004
  -1.59484551537e-004
  -1.60515452431e-004
  +5.15402421396e-007
</dep>
<dep V5.It time>
  -2.62580213649e-020
  -5.15553631009e-007
  -5.15553631009e-007
  -5.15553631009e-007
  -5.15553631009e-007
  -5.15553631009e-007
  -5.15553631009e-007
  -5.15553631009e-007
  -5.15553631009e-007
  -5.15553631009e-007
  -5.15450447257e-007
  +5.15450447257e-007
  -5.15450447257e-007
  +5.15450447257e-007
  -5.15450447257e-007
  +5.15450447257e-007
  -5.15450447257e-007
  +5.15450447257e-007
  -5.15450447257e-007
  +5.15450447257e-007
  -5.15404405480e-007
</dep>
<dep Idrain2.It time>
  +1.60000001984e-004
  -5.15551646925e-007
  -5.15551646925e-007
  -5.15551646925e-007
  -5.15551646925e-007
  -5.15551646925e-007
  -5.15551646925e-007
  -5.15551646925e-007
  -5.15551646925e-007
  -5.15551646925e-007
  +1.59484551537e-004
  +1.60515452431e-004
  +1.59484551537e-004
  +1.60515452431e-004
  +1.59484551537e-004
  +1.60515452431e-004
  +1.59484551537e-004
  +1.60515452431e-004
  +1.59484551537e-004
  +1.60515452431e-004
  -5.15402421396e-007
</dep>
<dep Idrain1.It time>
  +1.98408409484e-012
  +1.60000001984e-004
  +1.60000001984e-004
  +1.60000001984e-004
  +1.60000001984e-004
  +1.60000001984e-004
  +1.60000001984e-004
  +1.60000001984e-004
  +1.60000001984e-004
  +1.60000001984e-004
  +1.98408409484e-012
  +1.98408409484e-012
  +1.98408409484e-012
  +1.98408409484e-012
  +1.98408409484e-012
  +1.98408409484e-012
  +1.98408409484e-012
  +1.98408409484e-012
  +1.98408409484e-012
  +1.98408409484e-012
  +1.60000001984e-004
</dep>
<dep Idrain3.It time>
  +4.51557472228e-002
  +2.04245857679e-009
  +2.06540624808e-009
  +2.06541654748e-009
  +2.06542447785e-009
  +2.06542450134e-009
  +2.06542452516e-009
  +2.06542454883e-009
  +2.06542457251e-009
  +2.06542459594e-009
  +1.02191227819e-003
  +1.59997437928e-004
  +1.59996673202e-004
  +1.59997372173e-004
  +1.59996784005e-004
  +1.59997276842e-004
  +1.59996865961e-004
  +1.59997206322e-004
  +1.59996926532e-004
  +1.59997154071e-004
  +2.66005034048e-004
</dep>
<dep V6.It time>
  -4.51557472228e-002
  -2.04245857679e-009
  -2.06540624808e-009
  -2.06541654748e-009
  -2.06542447785e-009
  -2.06542450134e-009
  -2.06542452516e-009
  -2.06542454883e-009
  -2.06542457251e-009
  -2.06542459594e-009
  -1.02191227819e-003
  -1.59997437928e-004
  -1.59996673202e-004
  -1.59997372173e-004
  -1.59996784005e-004
  -1.59997276842e-004
  -1.59996865961e-004
  -1.59997206322e-004
  -1.59996926532e-004
  -1.59997154071e-004
  -2.66005034048e-004
</dep>
<dep V7.It time>
  +5.33947868372e-002
  -1.83867998493e-006
  -1.83878673191e-006
  -1.83878673200e-006
  -1.83878673205e-006
  -1.83878673209e-006
  -1.83878673213e-006
  -1.83878673217e-006
  -1.83878673221e-006
  -1.83878673225e-006
  +8.60091932119e-004
  +1.83906845170e-006
  -1.83904866783e-006
  +1.83900257482e-006
  -1.83893789262e-006
  +1.83890728404e-006
  -1.83885592196e-006
  +1.83883677213e-006
  -1.83879526689e-006
  +1.83878459640e-006
  +1.34309818658e-005
</dep>
<dep V8.It time>
  +5.33947868372e-002
  -1.83867998493e-006
  -1.83878673191e-006
  -1.83878673200e-006
  -1.83878673205e-006
  -1.83878673209e-006
  -1.83878673213e-006
  -1.83878673217e-006
  -1.83878673221e-006
  -1.83878673225e-006
  +8.60091932119e-004
  +1.83906845170e-006
  -1.83904866783e-006
  +1.83900257482e-006
  -1.83893789262e-006
  +1.83890728404e-006
  -1.83885592196e-006
  +1.83883677213e-006
  -1.83879526689e-006
  +1.83878459640e-006
  +1.34309818658e-005
</dep>
<dep _net7.Vt time>
  -7.08911472135e-001
  +1.17243022341e-005
  +1.17018981197e-005
  +1.17018980651e-005
  +1.17018980439e-005
  +1.17018980234e-005
  +1.17018980033e-005
  +1.17018979831e-005
  +1.17018979634e-005
  +1.17018979436e-005
  +5.99908336020e+000
  +5.99985218204e+000
  +5.99985214988e+000
  +5.99985218206e+000
  +5.99985214985e+000
  +5.99985218208e+000
  +5.99985214983e+000
  +5.99985218211e+000
  +5.99985214981e+000
  +5.99985218212e+000
  +1.52160876020e+000
</dep>
<dep Vout.Vt time>
  -7.09198874281e-001
  +1.07090370650e-005
  +1.15224847409e-005
  +1.15224858292e-005
  +1.15224862287e-005
  +1.15224866289e-005
  +1.15224870295e-005
  +1.15224874301e-005
  +1.15224878311e-005
  +1.15224882321e-005
  +5.99909393635e+000
  +5.99985269156e+000
  +5.99985164036e+000
  +5.99985269158e+000
  +5.99985164032e+000
  +5.99985269162e+000
  +5.99985164029e+000
  +5.99985269164e+000
  +5.99985164027e+000
  +5.99985269166e+000
  +1.52159937479e+000
</dep>
<dep _net6.Vt time>
  +3.00000000000e+000
  +3.00000000000e+000
  +3.00000000000e+000
  +3.00000000000e+000
  +3.00000000000e+000
  +3.00000000000e+000
  +3.00000000000e+000
  +3.00000000000e+000
  +3.00000000000e+000
  +3.00000000000e+000
  +3.00000000000e+000
  +3.00000000000e+000
  +3.00000000000e+000
  +3.00000000000e+000
  +3.00000000000e+000
  +3.00000000000e+000
  +3.00000000000e+000
  +3.00000000000e+000
  +3.00000000000e+000
  +3.00000000000e+000
  +3.00000000000e+000
</dep>
<dep Vgate3.Vt time>
  +3.00000000000e+000
  +9.00000000000e+000
  +9.00000000000e+000
  +9.00000000000e+000
  +9.00000000000e+000
  +9.00000000000e+000
  +9.00000000000e+000
  +9.00000000000e+000
  +9.00000000000e+000
  +9.00000000000e+000
  +3.00000000000e+000
  +3.00000000000e+000
  +3.00000000000e+000
  +3.00000000000e+000
  +3.00000000000e+000
  +3.00000000000e+000
  +3.00000000000e+000
  +3.00000000000e+000
  +3.00000000000e+000
  +3.00000000000e+000
  +9.00000000000e+000
</dep>
<dep _net4.Vt time>
  +6.00000000000e+000
  +6.00000000000e+000
  +6.00000000000e+000
  +6.00000000000e+000
  +6.00000000000e+000
  +6.00000000000e+000
  +6.00000000000e+000
  +6.00000000000e+000
  +6.00000000000e+000
  +6.00000000000e+000
  +6.00000000000e+000
  +6.00000000000e+000
  +6.00000000000e+000
  +6.00000000000e+000
  +6.00000000000e+000
  +6.00000000000e+000
  +6.00000000000e+000
  +6.00000000000e+000
  +6.00000000000e+000
  +6.00000000000e+000
  +6.00000000000e+000
</dep>
<dep _net5.Vt time>
  +6.00000000000e+000
  +6.00000000000e+000
  +6.00000000000e+000
  +6.00000000000e+000
  +6.00000000000e+000
  +6.00000000000e+000
  +6.00000000000e+000
  +6.00000000000e+000
  +6.00000000000e+000
  +6.00000000000e+000
  +6.00000000000e+000
  +6.00000000000e+000
  +6.00000000000e+000
  +6.00000000000e+000
  +6.00000000000e+000
  +6.00000000000e+000
  +6.00000000000e+000
  +6.00000000000e+000
  +6.00000000000e+000
  +6.00000000000e+000
  +6.00000000000e+000
</dep>
<dep Vgate1.Vt time>
  +0.00000000000e+000
  +5.00000000000e+000
  +5.00000000000e+000
  +5.00000000000e+000
  +5.00000000000e+000
  +5.00000000000e+000
  +5.00000000000e+000
  +5.00000000000e+000
  +5.00000000000e+000
  +5.00000000000e+000
  +0.00000000000e+000
  +0.00000000000e+000
  +0.00000000000e+000
  +0.00000000000e+000
  +0.00000000000e+000
  +0.00000000000e+000
  +0.00000000000e+000
  +0.00000000000e+000
  +0.00000000000e+000
  +0.00000000000e+000
  +5.00000000000e+000
</dep>
<dep _net0.Vt time>
  +5.00000000000e+000
  +5.00000000000e+000
  +5.00000000000e+000
  +5.00000000000e+000
  +5.00000000000e+000
  +5.00000000000e+000
  +5.00000000000e+000
  +5.00000000000e+000
  +5.00000000000e+000
  +5.00000000000e+000
  +5.00000000000e+000
  +5.00000000000e+000
  +5.00000000000e+000
  +5.00000000000e+000
  +5.00000000000e+000
  +5.00000000000e+000
  +5.00000000000e+000
  +5.00000000000e+000
  +5.00000000000e+000
  +5.00000000000e+000
  +5.00000000000e+000
</dep>
<dep _net1.Vt time>
  +5.00000000000e+000
  +5.00000000000e+000
  +5.00000000000e+000
  +5.00000000000e+000
  +5.00000000000e+000
  +5.00000000000e+000
  +5.00000000000e+000
  +5.00000000000e+000
  +5.00000000000e+000
  +5.00000000000e+000
  +5.00000000000e+000
  +5.00000000000e+000
  +5.00000000000e+000
  +5.00000000000e+000
  +5.00000000000e+000
  +5.00000000000e+000
  +5.00000000000e+000
  +5.00000000000e+000
  +5.00000000000e+000
  +5.00000000000e+000
  +5.00000000000e+000
</dep>
<dep _net3.Vt time>
  +5.00000000000e+000
  +5.00000000000e+000
  +5.00000000000e+000
  +5.00000000000e+000
  +5.00000000000e+000
  +5.00000000000e+000
  +5.00000000000e+000
  +5.00000000000e+000
  +5.00000000000e+000
  +5.00000000000e+000
  +5.00000000000e+000
  +5.00000000000e+000
  +5.00000000000e+000
  +5.00000000000e+000
  +5.00000000000e+000
  +5.00000000000e+000
  +5.00000000000e+000
  +5.00000000000e+000
  +5.00000000000e+000
  +5.00000000000e+000
  +5.00000000000e+000
</dep>
<dep _net2.Vt time>
  +5.00000000000e+000
  +5.00000000000e+000
  +5.00000000000e+000
  +5.00000000000e+000
  +5.00000000000e+000
  +5.00000000000e+000
  +5.00000000000e+000
  +5.00000000000e+000
  +5.00000000000e+000
  +5.00000000000e+000
  +5.00000000000e+000
  +5.00000000000e+000
  +5.00000000000e+000
  +5.00000000000e+000
  +5.00000000000e+000
  +5.00000000000e+000
  +5.00000000000e+000
  +5.00000000000e+000
  +5.00000000000e+000
  +5.00000000000e+000
  +5.00000000000e+000
</dep>
<dep Vgate2.Vt time>
  +0.00000000000e+000
  +5.00000000000e+000
  +5.00000000000e+000
  +5.00000000000e+000
  +5.00000000000e+000
  +5.00000000000e+000
  +5.00000000000e+000
  +5.00000000000e+000
  +5.00000000000e+000
  +5.00000000000e+000
  +0.00000000000e+000
  +0.00000000000e+000
  +0.00000000000e+000
  +0.00000000000e+000
  +0.00000000000e+000
  +0.00000000000e+000
  +0.00000000000e+000
  +0.00000000000e+000
  +0.00000000000e+000
  +0.00000000000e+000
  +5.00000000000e+000
</dep>
<indep V2.I 1>
  -2.25000019841e-005
</indep>
<indep V3.I 1>
  +0.00000000000e+000
</indep>
<indep V4.I 1>
  -2.25000019841e-005
</indep>
<indep V5.I 1>
  +0.00000000000e+000
</indep>
<indep Idrain2.I 1>
  +2.25000019841e-005
</indep>
<indep Idrain1.I 1>
  +2.25000019841e-005
</indep>
<indep Idrain3.I 1>
  +2.10237894632e-009
</indep>
<indep V6.I 1>
  -2.10237894632e-009
</indep>
<indep V7.I 1>
  +3.17454149336e-012
</indep>
<indep V8.I 1>
  +3.17454149336e-012
</indep>
<indep _net7.V 1>
  +1.74933677108e-005
</indep>
<indep Vout.V 1>
  +1.74933677108e-005
</indep>
<indep _net6.V 1>
  +3.00000000000e+000
</indep>
<indep Vgate3.V 1>
  +6.00000000000e+000
</indep>
<indep _net4.V 1>
  +6.00000000000e+000
</indep>
<indep _net5.V 1>
  +6.00000000000e+000
</indep>
<indep Vgate1.V 1>
  +2.50000000000e+000
</indep>
<indep _net0.V 1>
  +5.00000000000e+000
</indep>
<indep _net1.V 1>
  +5.00000000000e+000
</indep>
<indep _net3.V 1>
  +5.00000000000e+000
</indep>
<indep _net2.V 1>
  +5.00000000000e+000
</indep>
<indep Vgate2.V 1>
  +2.50000000000e+000
</indep>
