<Qucs Dataset 0.0.16>
<indep time 11>
  +0.00000000000e+000
  +1.00000000000e-004
  +2.00000000000e-004
  +3.00000000000e-004
  +4.00000000000e-004
  +5.00000000000e-004
  +6.00000000000e-004
  +7.00000000000e-004
  +8.00000000000e-004
  +9.00000000000e-004
  +1.00000000000e-003
</indep>
<indep ib 10>
  +1.00000000000e-008
  +4.64158883361e-008
  +2.15443469003e-007
  +1.00000000000e-006
  +4.64158883361e-006
  +2.15443469003e-005
  +1.00000000000e-004
  +4.64158883361e-004
  +2.15443469003e-003
  +1.00000000000e-002
</indep>
<dep V1.It time ib>
  -2.83363654186e-009
  -3.13644533189e-009
  -4.77872549475e-009
  -6.13748465891e-009
  -7.10734747157e-009
  -7.73410191183e-009
  -8.11473668404e-009
  -8.33747268545e-009
  -8.46504516031e-009
  -8.53722210879e-009
  -8.57778473646e-009
  -4.89270105570e-008
  -1.57232973749e-007
  -1.79455756948e-007
  -1.81311976752e-007
  -1.81453064780e-007
  -1.81463705713e-007
  -1.81464505450e-007
  -1.81464574490e-007
  -1.81464578857e-007
  -1.81464579520e-007
  -1.81464579847e-007
  -9.58031342935e-007
  -3.58512198643e-006
  -3.58516209924e-006
  -3.58516210157e-006
  -3.58516210369e-006
  -3.58516210560e-006
  -3.58516210817e-006
  -3.58516210983e-006
  -3.58516211163e-006
  -3.58516211384e-006
  -3.58516211610e-006
  -1.71453170042e-005
  -5.74845811088e-005
  -5.74845808727e-005
  -5.74845806300e-005
  -5.74845803883e-005
  -5.74845801443e-005
  -5.74845798977e-005
  -5.74845796572e-005
  -5.74845794119e-005
  -5.74845791675e-005
  -5.74845789237e-005
  -2.23334341798e-004
  -6.17224593893e-004
  -6.17224593856e-004
  -6.17224593904e-004
  -6.17224593972e-004
  -6.17224594023e-004
  -6.17224594087e-004
  -6.17224594147e-004
  -6.17224594203e-004
  -6.17224594265e-004
  -6.17224594330e-004
  -1.75961029660e-003
  -4.45712222434e-003
  -4.45712220526e-003
  -4.45712220411e-003
  -4.45712220372e-003
  -4.45712220338e-003
  -4.45712220305e-003
  -4.45712220270e-003
  -4.45712220235e-003
  -4.45712220202e-003
  -4.45712220167e-003
  -1.16285887879e-002
  -2.44368646292e-002
  -2.44368671200e-002
  -2.44368673735e-002
  -2.44368673961e-002
  -2.44368673950e-002
  -2.44368673914e-002
  -2.44368673876e-002
  -2.44368673837e-002
  -2.44368673798e-002
  -2.44368673760e-002
  -5.59436483987e-002
  -1.04563677127e-001
  -1.04563677228e-001
  -1.04563677237e-001
  -1.04563677227e-001
  -1.04563677215e-001
  -1.04563677201e-001
  -1.04563677187e-001
  -1.04563677174e-001
  -1.04563677160e-001
  -1.04563677147e-001
  -2.08342485742e-001
  -3.40420909584e-001
  -3.40420887063e-001
  -3.40420877981e-001
  -3.40420874334e-001
  -3.40420872884e-001
  -3.40420872323e-001
  -3.40420872121e-001
  -3.40420872064e-001
  -3.40420872066e-001
  -3.40420872091e-001
  -4.93999496279e-001
  -9.00595347138e-001
  -9.00595387640e-001
  -9.00595413276e-001
  -9.00595429828e-001
  -9.00595440516e-001
  -9.00595447420e-001
  -9.00595451882e-001
  -9.00595454766e-001
  -9.00595456633e-001
  -9.00595457843e-001
</dep>
<dep Ic.It time ib>
  +2.83363654186e-009
  +3.13644533189e-009
  +4.77872549475e-009
  +6.13748465891e-009
  +7.10734747157e-009
  +7.73410191183e-009
  +8.11473668404e-009
  +8.33747268545e-009
  +8.46504516031e-009
  +8.53722210879e-009
  +8.57778473646e-009
  +4.89270105570e-008
  +1.57232973749e-007
  +1.79455756948e-007
  +1.81311976752e-007
  +1.81453064780e-007
  +1.81463705713e-007
  +1.81464505450e-007
  +1.81464574490e-007
  +1.81464578857e-007
  +1.81464579520e-007
  +1.81464579847e-007
  +9.58031342935e-007
  +3.58512198643e-006
  +3.58516209924e-006
  +3.58516210157e-006
  +3.58516210369e-006
  +3.58516210560e-006
  +3.58516210817e-006
  +3.58516210983e-006
  +3.58516211163e-006
  +3.58516211384e-006
  +3.58516211610e-006
  +1.71453170042e-005
  +5.74845811088e-005
  +5.74845808727e-005
  +5.74845806300e-005
  +5.74845803883e-005
  +5.74845801443e-005
  +5.74845798977e-005
  +5.74845796572e-005
  +5.74845794119e-005
  +5.74845791675e-005
  +5.74845789237e-005
  +2.23334341798e-004
  +6.17224593893e-004
  +6.17224593856e-004
  +6.17224593904e-004
  +6.17224593972e-004
  +6.17224594023e-004
  +6.17224594087e-004
  +6.17224594147e-004
  +6.17224594203e-004
  +6.17224594265e-004
  +6.17224594330e-004
  +1.75961029660e-003
  +4.45712222434e-003
  +4.45712220526e-003
  +4.45712220411e-003
  +4.45712220372e-003
  +4.45712220338e-003
  +4.45712220305e-003
  +4.45712220270e-003
  +4.45712220235e-003
  +4.45712220202e-003
  +4.45712220167e-003
  +1.16285887879e-002
  +2.44368646292e-002
  +2.44368671200e-002
  +2.44368673735e-002
  +2.44368673961e-002
  +2.44368673950e-002
  +2.44368673914e-002
  +2.44368673876e-002
  +2.44368673837e-002
  +2.44368673798e-002
  +2.44368673760e-002
  +5.59436483987e-002
  +1.04563677127e-001
  +1.04563677228e-001
  +1.04563677237e-001
  +1.04563677227e-001
  +1.04563677215e-001
  +1.04563677201e-001
  +1.04563677187e-001
  +1.04563677174e-001
  +1.04563677160e-001
  +1.04563677147e-001
  +2.08342485742e-001
  +3.40420909584e-001
  +3.40420887063e-001
  +3.40420877981e-001
  +3.40420874334e-001
  +3.40420872884e-001
  +3.40420872323e-001
  +3.40420872121e-001
  +3.40420872064e-001
  +3.40420872066e-001
  +3.40420872091e-001
  +4.93999496279e-001
  +9.00595347138e-001
  +9.00595387640e-001
  +9.00595413276e-001
  +9.00595429828e-001
  +9.00595440516e-001
  +9.00595447420e-001
  +9.00595451882e-001
  +9.00595454766e-001
  +9.00595456633e-001
  +9.00595457843e-001
</dep>
<dep vb.Vt time ib>
  +3.18348390747e-001
  +3.31466154523e-001
  +3.40371855637e-001
  +3.46026735584e-001
  +3.49444465446e-001
  +3.51443194404e-001
  +3.52588399329e-001
  +3.53236634690e-001
  +3.53600994333e-001
  +3.53804976261e-001
  +3.53918915832e-001
  +3.97379280491e-001
  +4.29246029447e-001
  +4.32607871496e-001
  +4.32870025626e-001
  +4.32889844265e-001
  +4.32891338927e-001
  +4.32891451618e-001
  +4.32891460121e-001
  +4.32891460793e-001
  +4.32891460846e-001
  +4.32891460844e-001
  +4.75609030525e-001
  +5.10115703739e-001
  +5.10115992283e-001
  +5.10115992285e-001
  +5.10115992286e-001
  +5.10115992285e-001
  +5.10115992289e-001
  +5.10115992286e-001
  +5.10115992284e-001
  +5.10115992286e-001
  +5.10115992287e-001
  +5.50541896248e-001
  +5.81953937670e-001
  +5.81953937670e-001
  +5.81953937670e-001
  +5.81953937671e-001
  +5.81953937671e-001
  +5.81953937669e-001
  +5.81953937671e-001
  +5.81953937670e-001
  +5.81953937669e-001
  +5.81953937669e-001
  +6.17122797171e-001
  +6.43621763597e-001
  +6.43621763593e-001
  +6.43621763593e-001
  +6.43621763593e-001
  +6.43621763593e-001
  +6.43621763593e-001
  +6.43621763593e-001
  +6.43621763593e-001
  +6.43621763593e-001
  +6.43621763593e-001
  +6.71164284463e-001
  +6.96307720761e-001
  +6.96307720645e-001
  +6.96307720639e-001
  +6.96307720639e-001
  +6.96307720639e-001
  +6.96307720639e-001
  +6.96307720639e-001
  +6.96307720639e-001
  +6.96307720639e-001
  +6.96307720638e-001
  +7.23861984218e-001
  +7.48169531630e-001
  +7.48169535228e-001
  +7.48169535598e-001
  +7.48169535635e-001
  +7.48169535638e-001
  +7.48169535637e-001
  +7.48169535636e-001
  +7.48169535635e-001
  +7.48169535633e-001
  +7.48169535632e-001
  +7.81455728430e-001
  +8.16653641415e-001
  +8.16653641482e-001
  +8.16653641491e-001
  +8.16653641490e-001
  +8.16653641486e-001
  +8.16653641482e-001
  +8.16653641477e-001
  +8.16653641473e-001
  +8.16653641469e-001
  +8.16653641464e-001
  +8.71935923626e-001
  +9.35499767055e-001
  +9.35499757336e-001
  +9.35499753414e-001
  +9.35499751836e-001
  +9.35499751205e-001
  +9.35499750959e-001
  +9.35499750867e-001
  +9.35499750837e-001
  +9.35499750834e-001
  +9.35499750840e-001
  +9.95763138857e-001
  +1.16692097875e+000
  +1.16692099366e+000
  +1.16692100310e+000
  +1.16692100919e+000
  +1.16692101313e+000
  +1.16692101567e+000
  +1.16692101731e+000
  +1.16692101837e+000
  +1.16692101906e+000
  +1.16692101951e+000
</dep>
<dep _net1.Vt time ib>
  +1.00000000000e+001
  +1.00000000000e+001
  +1.00000000000e+001
  +1.00000000000e+001
  +1.00000000000e+001
  +1.00000000000e+001
  +1.00000000000e+001
  +1.00000000000e+001
  +1.00000000000e+001
  +1.00000000000e+001
  +1.00000000000e+001
  +1.00000000000e+001
  +1.00000000000e+001
  +1.00000000000e+001
  +1.00000000000e+001
  +1.00000000000e+001
  +1.00000000000e+001
  +1.00000000000e+001
  +1.00000000000e+001
  +1.00000000000e+001
  +1.00000000000e+001
  +1.00000000000e+001
  +1.00000000000e+001
  +1.00000000000e+001
  +1.00000000000e+001
  +1.00000000000e+001
  +1.00000000000e+001
  +1.00000000000e+001
  +1.00000000000e+001
  +1.00000000000e+001
  +1.00000000000e+001
  +1.00000000000e+001
  +1.00000000000e+001
  +1.00000000000e+001
  +1.00000000000e+001
  +1.00000000000e+001
  +1.00000000000e+001
  +1.00000000000e+001
  +1.00000000000e+001
  +1.00000000000e+001
  +1.00000000000e+001
  +1.00000000000e+001
  +1.00000000000e+001
  +1.00000000000e+001
  +1.00000000000e+001
  +1.00000000000e+001
  +1.00000000000e+001
  +1.00000000000e+001
  +1.00000000000e+001
  +1.00000000000e+001
  +1.00000000000e+001
  +1.00000000000e+001
  +1.00000000000e+001
  +1.00000000000e+001
  +1.00000000000e+001
  +1.00000000000e+001
  +1.00000000000e+001
  +1.00000000000e+001
  +1.00000000000e+001
  +1.00000000000e+001
  +1.00000000000e+001
  +1.00000000000e+001
  +1.00000000000e+001
  +1.00000000000e+001
  +1.00000000000e+001
  +1.00000000000e+001
  +1.00000000000e+001
  +1.00000000000e+001
  +1.00000000000e+001
  +1.00000000000e+001
  +1.00000000000e+001
  +1.00000000000e+001
  +1.00000000000e+001
  +1.00000000000e+001
  +1.00000000000e+001
  +1.00000000000e+001
  +1.00000000000e+001
  +1.00000000000e+001
  +1.00000000000e+001
  +1.00000000000e+001
  +1.00000000000e+001
  +1.00000000000e+001
  +1.00000000000e+001
  +1.00000000000e+001
  +1.00000000000e+001
  +1.00000000000e+001
  +1.00000000000e+001
  +1.00000000000e+001
  +1.00000000000e+001
  +1.00000000000e+001
  +1.00000000000e+001
  +1.00000000000e+001
  +1.00000000000e+001
  +1.00000000000e+001
  +1.00000000000e+001
  +1.00000000000e+001
  +1.00000000000e+001
  +1.00000000000e+001
  +1.00000000000e+001
  +1.00000000000e+001
  +1.00000000000e+001
  +1.00000000000e+001
  +1.00000000000e+001
  +1.00000000000e+001
  +1.00000000000e+001
  +1.00000000000e+001
  +1.00000000000e+001
  +1.00000000000e+001
  +1.00000000000e+001
  +1.00000000000e+001
</dep>
<dep _net0.Vt time ib>
  +1.00000000000e+001
  +1.00000000000e+001
  +1.00000000000e+001
  +1.00000000000e+001
  +1.00000000000e+001
  +1.00000000000e+001
  +1.00000000000e+001
  +1.00000000000e+001
  +1.00000000000e+001
  +1.00000000000e+001
  +1.00000000000e+001
  +1.00000000000e+001
  +1.00000000000e+001
  +1.00000000000e+001
  +1.00000000000e+001
  +1.00000000000e+001
  +1.00000000000e+001
  +1.00000000000e+001
  +1.00000000000e+001
  +1.00000000000e+001
  +1.00000000000e+001
  +1.00000000000e+001
  +1.00000000000e+001
  +1.00000000000e+001
  +1.00000000000e+001
  +1.00000000000e+001
  +1.00000000000e+001
  +1.00000000000e+001
  +1.00000000000e+001
  +1.00000000000e+001
  +1.00000000000e+001
  +1.00000000000e+001
  +1.00000000000e+001
  +1.00000000000e+001
  +1.00000000000e+001
  +1.00000000000e+001
  +1.00000000000e+001
  +1.00000000000e+001
  +1.00000000000e+001
  +1.00000000000e+001
  +1.00000000000e+001
  +1.00000000000e+001
  +1.00000000000e+001
  +1.00000000000e+001
  +1.00000000000e+001
  +1.00000000000e+001
  +1.00000000000e+001
  +1.00000000000e+001
  +1.00000000000e+001
  +1.00000000000e+001
  +1.00000000000e+001
  +1.00000000000e+001
  +1.00000000000e+001
  +1.00000000000e+001
  +1.00000000000e+001
  +1.00000000000e+001
  +1.00000000000e+001
  +1.00000000000e+001
  +1.00000000000e+001
  +1.00000000000e+001
  +1.00000000000e+001
  +1.00000000000e+001
  +1.00000000000e+001
  +1.00000000000e+001
  +1.00000000000e+001
  +1.00000000000e+001
  +1.00000000000e+001
  +1.00000000000e+001
  +1.00000000000e+001
  +1.00000000000e+001
  +1.00000000000e+001
  +1.00000000000e+001
  +1.00000000000e+001
  +1.00000000000e+001
  +1.00000000000e+001
  +1.00000000000e+001
  +1.00000000000e+001
  +1.00000000000e+001
  +1.00000000000e+001
  +1.00000000000e+001
  +1.00000000000e+001
  +1.00000000000e+001
  +1.00000000000e+001
  +1.00000000000e+001
  +1.00000000000e+001
  +1.00000000000e+001
  +1.00000000000e+001
  +1.00000000000e+001
  +1.00000000000e+001
  +1.00000000000e+001
  +1.00000000000e+001
  +1.00000000000e+001
  +1.00000000000e+001
  +1.00000000000e+001
  +1.00000000000e+001
  +1.00000000000e+001
  +1.00000000000e+001
  +1.00000000000e+001
  +1.00000000000e+001
  +1.00000000000e+001
  +1.00000000000e+001
  +1.00000000000e+001
  +1.00000000000e+001
  +1.00000000000e+001
  +1.00000000000e+001
  +1.00000000000e+001
  +1.00000000000e+001
  +1.00000000000e+001
  +1.00000000000e+001
  +1.00000000000e+001
</dep>
<dep V1.I ib>
  -2.17248517686e-009
  -4.60236148558e-008
  -9.45315066358e-007
  -1.70910209412e-005
  -2.23333083011e-004
  -1.90114801221e-003
  -1.16693075882e-002
  -5.60866393812e-002
  -2.06235217493e-001
  -5.91543391086e-001
</dep>
<dep Ic.I ib>
  +2.17248517686e-009
  +4.60236148558e-008
  +9.45315066358e-007
  +1.70910209412e-005
  +2.23333083011e-004
  +1.90114801221e-003
  +1.16693075882e-002
  +5.60866393812e-002
  +2.06235217493e-001
  +5.91543391086e-001
</dep>
<dep vb.V ib>
  +3.18348444665e-001
  +3.97379518759e-001
  +4.75610083604e-001
  +5.50545249857e-001
  +6.17152604191e-001
  +6.73247484040e-001
  +7.24049822114e-001
  +7.81945706428e-001
  +8.72619447669e-001
  +1.04226295565e+000
</dep>
<dep _net1.V ib>
  +1.00000000000e+001
  +1.00000000000e+001
  +1.00000000000e+001
  +1.00000000000e+001
  +1.00000000000e+001
  +1.00000000000e+001
  +1.00000000000e+001
  +1.00000000000e+001
  +1.00000000000e+001
  +1.00000000000e+001
</dep>
<dep _net0.V ib>
  +1.00000000000e+001
  +1.00000000000e+001
  +1.00000000000e+001
  +1.00000000000e+001
  +1.00000000000e+001
  +1.00000000000e+001
  +1.00000000000e+001
  +1.00000000000e+001
  +1.00000000000e+001
  +1.00000000000e+001
</dep>
