<Qucs Dataset 0.0.16>
<indep time 100>
  +0.00000000000e+000
  +4.04040404040e-005
  +8.08080808081e-005
  +1.21212121212e-004
  +1.61616161616e-004
  +2.02020202020e-004
  +2.42424242424e-004
  +2.82828282828e-004
  +3.23232323232e-004
  +3.63636363636e-004
  +4.04040404040e-004
  +4.44444444444e-004
  +4.84848484848e-004
  +5.25252525253e-004
  +5.65656565657e-004
  +6.06060606061e-004
  +6.46464646465e-004
  +6.86868686869e-004
  +7.27272727273e-004
  +7.67676767677e-004
  +8.08080808081e-004
  +8.48484848485e-004
  +8.88888888889e-004
  +9.29292929293e-004
  +9.69696969697e-004
  +1.01010101010e-003
  +1.05050505051e-003
  +1.09090909091e-003
  +1.13131313131e-003
  +1.17171717172e-003
  +1.21212121212e-003
  +1.25252525253e-003
  +1.29292929293e-003
  +1.33333333333e-003
  +1.37373737374e-003
  +1.41414141414e-003
  +1.45454545455e-003
  +1.49494949495e-003
  +1.53535353535e-003
  +1.57575757576e-003
  +1.61616161616e-003
  +1.65656565657e-003
  +1.69696969697e-003
  +1.73737373737e-003
  +1.77777777778e-003
  +1.81818181818e-003
  +1.85858585859e-003
  +1.89898989899e-003
  +1.93939393939e-003
  +1.97979797980e-003
  +2.02020202020e-003
  +2.06060606061e-003
  +2.10101010101e-003
  +2.14141414141e-003
  +2.18181818182e-003
  +2.22222222222e-003
  +2.26262626263e-003
  +2.30303030303e-003
  +2.34343434343e-003
  +2.38383838384e-003
  +2.42424242424e-003
  +2.46464646465e-003
  +2.50505050505e-003
  +2.54545454545e-003
  +2.58585858586e-003
  +2.62626262626e-003
  +2.66666666667e-003
  +2.70707070707e-003
  +2.74747474747e-003
  +2.78787878788e-003
  +2.82828282828e-003
  +2.86868686869e-003
  +2.90909090909e-003
  +2.94949494949e-003
  +2.98989898990e-003
  +3.03030303030e-003
  +3.07070707071e-003
  +3.11111111111e-003
  +3.15151515152e-003
  +3.19191919192e-003
  +3.23232323232e-003
  +3.27272727273e-003
  +3.31313131313e-003
  +3.35353535354e-003
  +3.39393939394e-003
  +3.43434343434e-003
  +3.47474747475e-003
  +3.51515151515e-003
  +3.55555555556e-003
  +3.59595959596e-003
  +3.63636363636e-003
  +3.67676767677e-003
  +3.71717171717e-003
  +3.75757575758e-003
  +3.79797979798e-003
  +3.83838383838e-003
  +3.87878787879e-003
  +3.91919191919e-003
  +3.95959595960e-003
  +4.00000000000e-003
</indep>
<indep res 1>
  +1.00000000000e+003
</indep>
<dep V2.It time res>
  +0.00000000000e+000
  +0.00000000000e+000
  +0.00000000000e+000
  +0.00000000000e+000
  +0.00000000000e+000
  +0.00000000000e+000
  +0.00000000000e+000
  +0.00000000000e+000
  +0.00000000000e+000
  +0.00000000000e+000
  +0.00000000000e+000
  +0.00000000000e+000
  +0.00000000000e+000
  +0.00000000000e+000
  +0.00000000000e+000
  +0.00000000000e+000
  +0.00000000000e+000
  +0.00000000000e+000
  +0.00000000000e+000
  +0.00000000000e+000
  +0.00000000000e+000
  +0.00000000000e+000
  +0.00000000000e+000
  +0.00000000000e+000
  +0.00000000000e+000
  +0.00000000000e+000
  +0.00000000000e+000
  +0.00000000000e+000
  +0.00000000000e+000
  +0.00000000000e+000
  +0.00000000000e+000
  +0.00000000000e+000
  +0.00000000000e+000
  +0.00000000000e+000
  +0.00000000000e+000
  +0.00000000000e+000
  +0.00000000000e+000
  +0.00000000000e+000
  +0.00000000000e+000
  +0.00000000000e+000
  +0.00000000000e+000
  +0.00000000000e+000
  +0.00000000000e+000
  +0.00000000000e+000
  +0.00000000000e+000
  +0.00000000000e+000
  +0.00000000000e+000
  +0.00000000000e+000
  +0.00000000000e+000
  +0.00000000000e+000
  +0.00000000000e+000
  +0.00000000000e+000
  +0.00000000000e+000
  +0.00000000000e+000
  +0.00000000000e+000
  +0.00000000000e+000
  +0.00000000000e+000
  +0.00000000000e+000
  +0.00000000000e+000
  +0.00000000000e+000
  +0.00000000000e+000
  +0.00000000000e+000
  +0.00000000000e+000
  +0.00000000000e+000
  +0.00000000000e+000
  +0.00000000000e+000
  +0.00000000000e+000
  +0.00000000000e+000
  +0.00000000000e+000
  +0.00000000000e+000
  +0.00000000000e+000
  +0.00000000000e+000
  +0.00000000000e+000
  +0.00000000000e+000
  +0.00000000000e+000
  +0.00000000000e+000
  +0.00000000000e+000
  +0.00000000000e+000
  +0.00000000000e+000
  +0.00000000000e+000
  +0.00000000000e+000
  +0.00000000000e+000
  +0.00000000000e+000
  +0.00000000000e+000
  +0.00000000000e+000
  +0.00000000000e+000
  +0.00000000000e+000
  +0.00000000000e+000
  +0.00000000000e+000
  +0.00000000000e+000
  +0.00000000000e+000
  +0.00000000000e+000
  +0.00000000000e+000
  +0.00000000000e+000
  +0.00000000000e+000
  +0.00000000000e+000
  +0.00000000000e+000
  +0.00000000000e+000
  +0.00000000000e+000
  +0.00000000000e+000
</dep>
<dep V1.It time res>
  +0.00000000000e+000
  +0.00000000000e+000
  +0.00000000000e+000
  +0.00000000000e+000
  +0.00000000000e+000
  +0.00000000000e+000
  +0.00000000000e+000
  +0.00000000000e+000
  +0.00000000000e+000
  +0.00000000000e+000
  +0.00000000000e+000
  +0.00000000000e+000
  +0.00000000000e+000
  +0.00000000000e+000
  +0.00000000000e+000
  +0.00000000000e+000
  +0.00000000000e+000
  +0.00000000000e+000
  +0.00000000000e+000
  +0.00000000000e+000
  +0.00000000000e+000
  +0.00000000000e+000
  +0.00000000000e+000
  +0.00000000000e+000
  +0.00000000000e+000
  +0.00000000000e+000
  +0.00000000000e+000
  +0.00000000000e+000
  +0.00000000000e+000
  +0.00000000000e+000
  +0.00000000000e+000
  +0.00000000000e+000
  +0.00000000000e+000
  +0.00000000000e+000
  +0.00000000000e+000
  +0.00000000000e+000
  +0.00000000000e+000
  +0.00000000000e+000
  +0.00000000000e+000
  +0.00000000000e+000
  +0.00000000000e+000
  +0.00000000000e+000
  +0.00000000000e+000
  +0.00000000000e+000
  +0.00000000000e+000
  +0.00000000000e+000
  +0.00000000000e+000
  +0.00000000000e+000
  +0.00000000000e+000
  +0.00000000000e+000
  +0.00000000000e+000
  +0.00000000000e+000
  +0.00000000000e+000
  +0.00000000000e+000
  +0.00000000000e+000
  +0.00000000000e+000
  +0.00000000000e+000
  +0.00000000000e+000
  +0.00000000000e+000
  +0.00000000000e+000
  +0.00000000000e+000
  +0.00000000000e+000
  +0.00000000000e+000
  +0.00000000000e+000
  +0.00000000000e+000
  +0.00000000000e+000
  +0.00000000000e+000
  +0.00000000000e+000
  +0.00000000000e+000
  +0.00000000000e+000
  +0.00000000000e+000
  +0.00000000000e+000
  +0.00000000000e+000
  +0.00000000000e+000
  +0.00000000000e+000
  +0.00000000000e+000
  +0.00000000000e+000
  +0.00000000000e+000
  +0.00000000000e+000
  +0.00000000000e+000
  +0.00000000000e+000
  +0.00000000000e+000
  +0.00000000000e+000
  +0.00000000000e+000
  +0.00000000000e+000
  +0.00000000000e+000
  +0.00000000000e+000
  +0.00000000000e+000
  +0.00000000000e+000
  +0.00000000000e+000
  +0.00000000000e+000
  +0.00000000000e+000
  +0.00000000000e+000
  +0.00000000000e+000
  +0.00000000000e+000
  +0.00000000000e+000
  +0.00000000000e+000
  +0.00000000000e+000
  +0.00000000000e+000
  +0.00000000000e+000
</dep>
<dep V11.It time res>
  -4.29811092332e-002
  +3.65659439923e-007
  +3.65600270444e-007
  -3.65581484185e-007
  +3.65562250981e-007
  -3.65543033123e-007
  +3.65523763360e-007
  -3.65504535380e-007
  +3.65485281315e-007
  -3.65466031205e-007
  +3.65446741024e-007
  -3.65427508448e-007
  +3.65408208794e-007
  -3.65400618616e-007
  +3.65392534258e-007
  -3.65380881748e-007
  +3.65373550093e-007
  -3.65366459494e-007
  +3.65359331580e-007
  -3.65352228524e-007
  +3.65345100514e-007
  -3.65338009660e-007
  +3.65330892731e-007
  -3.65323800746e-007
  +3.65316669386e-007
  -4.26655462337e-002
  -4.26289823652e-002
  -4.26289823694e-002
  -4.26289823692e-002
  -4.26289823692e-002
  -4.26289823692e-002
  -4.26289823692e-002
  -4.26289823692e-002
  -4.26289823692e-002
  -4.26289823692e-002
  -4.26289823692e-002
  -4.26289823692e-002
  -4.26289823692e-002
  -4.26289823692e-002
  -4.26289823692e-002
  -4.26289823692e-002
  -4.26289823692e-002
  -4.26289823692e-002
  -4.26289823692e-002
  -4.26289823692e-002
  -4.26289823692e-002
  -4.26289823692e-002
  -4.26289823692e-002
  -4.26289823692e-002
  -4.26289823692e-002
  +1.96510267002e-007
  +1.96488758121e-007
  -1.96483801265e-007
  +1.96478526765e-007
  -1.96470968063e-007
  +1.96466407867e-007
  -1.96461941765e-007
  +1.96457429846e-007
  -1.96452981273e-007
  +1.96448506052e-007
  -1.96444054459e-007
  +1.96439575891e-007
  -1.96435121025e-007
  +1.96430679050e-007
  -1.96426220676e-007
  +1.96421762038e-007
  -1.96417353187e-007
  +1.96412904056e-007
  -1.96408491556e-007
  +1.96404065276e-007
  -1.96399675518e-007
  +1.96395232032e-007
  -1.96390851583e-007
  +1.96386443915e-007
  -1.96382046098e-007
  -4.26289828376e-002
  -4.26289823693e-002
  -4.26289823692e-002
  -4.26289823692e-002
  -4.26289823692e-002
  -4.26289823692e-002
  -4.26289823692e-002
  -4.26289823692e-002
  -4.26289823692e-002
  -4.26289823692e-002
  -4.26289823692e-002
  -4.26289823692e-002
  -4.26289823692e-002
  -4.26289823692e-002
  -4.26289823692e-002
  -4.26289823692e-002
  -4.26289823692e-002
  -4.26289823692e-002
  -4.26289823692e-002
  -4.26289823692e-002
  -4.26289823692e-002
  -4.26289823692e-002
  -4.26289823692e-002
  -4.26289823692e-002
  -4.26289823692e-002
</dep>
<dep V12.It time res>
  +3.36980812712e-002
  -7.33188246570e-005
  -7.33067606535e-005
  +7.33028239394e-005
  -7.32989037537e-005
  +7.32949837739e-005
  -7.32910640013e-005
  +7.32871444347e-005
  -7.32832250754e-005
  +7.32793059222e-005
  -7.32753869764e-005
  +7.32714682368e-005
  -7.32675497046e-005
  +7.32660038329e-005
  -7.32643603740e-005
  +7.32619905058e-005
  -7.32605025890e-005
  +7.32590580870e-005
  -7.32576136131e-005
  +7.32561691673e-005
  -7.32547247496e-005
  +7.32532803601e-005
  -7.32518359987e-005
  +7.32503916655e-005
  -7.32489473604e-005
  +2.59137889094e-002
  +2.58913869877e-002
  +2.58913871936e-002
  +2.58913871210e-002
  +2.58913871417e-002
  +2.58913871358e-002
  +2.58913871375e-002
  +2.58913871370e-002
  +2.58913871371e-002
  +2.58913871371e-002
  +2.58913871371e-002
  +2.58913871371e-002
  +2.58913871371e-002
  +2.58913871371e-002
  +2.58913871371e-002
  +2.58913871371e-002
  +2.58913871371e-002
  +2.58913871371e-002
  +2.58913871371e-002
  +2.58913871371e-002
  +2.58913871371e-002
  +2.58913871371e-002
  +2.58913871371e-002
  +2.58913871371e-002
  +2.58913871371e-002
  -3.93789762862e-005
  -3.93753819618e-005
  +3.93745508425e-005
  -3.93736664939e-005
  +3.93723908449e-005
  -3.93716259003e-005
  +3.93708694159e-005
  -3.93701129487e-005
  +3.93693564984e-005
  -3.93686000651e-005
  +3.93678436488e-005
  -3.93670872496e-005
  +3.93663308672e-005
  -3.93655745019e-005
  +3.93648181535e-005
  -3.93640618219e-005
  +3.93633055073e-005
  -3.93625492095e-005
  +3.93617929285e-005
  -3.93610366645e-005
  +3.93602804172e-005
  -3.93595241868e-005
  +3.93587679731e-005
  -3.93580117762e-005
  +3.93572555960e-005
  +2.58913873344e-002
  +2.58913871440e-002
  +2.58913871345e-002
  +2.58913871381e-002
  +2.58913871369e-002
  +2.58913871372e-002
  +2.58913871371e-002
  +2.58913871371e-002
  +2.58913871371e-002
  +2.58913871371e-002
  +2.58913871371e-002
  +2.58913871371e-002
  +2.58913871371e-002
  +2.58913871371e-002
  +2.58913871371e-002
  +2.58913871371e-002
  +2.58913871371e-002
  +2.58913871371e-002
  +2.58913871371e-002
  +2.58913871371e-002
  +2.58913871371e-002
  +2.58913871371e-002
  +2.58913871371e-002
  +2.58913871371e-002
  +2.58913871371e-002
</dep>
<dep V13.It time res>
  +9.28302796226e-003
  +7.29531652075e-005
  +7.29411603845e-005
  -7.29372424532e-005
  +7.29333414977e-005
  -7.29294407546e-005
  +7.29255402226e-005
  -7.29216399028e-005
  +7.29177397940e-005
  -7.29138398973e-005
  +7.29099402114e-005
  -7.29060407375e-005
  +7.29021414743e-005
  -7.29006032073e-005
  +7.28989678324e-005
  -7.28966096235e-005
  +7.28951290349e-005
  -7.28936916410e-005
  +7.28922542758e-005
  -7.28908169393e-005
  +7.28893796316e-005
  -7.28879423524e-005
  +7.28865051021e-005
  -7.28850678803e-005
  +7.28836306873e-005
  +1.67517573242e-002
  +1.67375953775e-002
  +1.67375951759e-002
  +1.67375952482e-002
  +1.67375952275e-002
  +1.67375952334e-002
  +1.67375952317e-002
  +1.67375952322e-002
  +1.67375952321e-002
  +1.67375952321e-002
  +1.67375952321e-002
  +1.67375952321e-002
  +1.67375952321e-002
  +1.67375952321e-002
  +1.67375952321e-002
  +1.67375952321e-002
  +1.67375952321e-002
  +1.67375952321e-002
  +1.67375952321e-002
  +1.67375952321e-002
  +1.67375952321e-002
  +1.67375952321e-002
  +1.67375952321e-002
  +1.67375952321e-002
  +1.67375952321e-002
  +3.91824660142e-005
  +3.91788931965e-005
  -3.91780670324e-005
  +3.91771879504e-005
  -3.91759198859e-005
  +3.91751594844e-005
  -3.91744074858e-005
  +3.91736554990e-005
  -3.91729035243e-005
  +3.91721515614e-005
  -3.91713996105e-005
  +3.91706476716e-005
  -3.91698957446e-005
  +3.91691438297e-005
  -3.91683919268e-005
  +3.91676400359e-005
  -3.91668881572e-005
  +3.91661362904e-005
  -3.91653844359e-005
  +3.91646325933e-005
  -3.91638807630e-005
  +3.91631289448e-005
  -3.91623771387e-005
  +3.91616253448e-005
  -3.91608735632e-005
  +1.67375955032e-002
  +1.67375952253e-002
  +1.67375952347e-002
  +1.67375952312e-002
  +1.67375952323e-002
  +1.67375952320e-002
  +1.67375952322e-002
  +1.67375952321e-002
  +1.67375952321e-002
  +1.67375952321e-002
  +1.67375952321e-002
  +1.67375952321e-002
  +1.67375952321e-002
  +1.67375952321e-002
  +1.67375952321e-002
  +1.67375952321e-002
  +1.67375952321e-002
  +1.67375952321e-002
  +1.67375952321e-002
  +1.67375952321e-002
  +1.67375952321e-002
  +1.67375952321e-002
  +1.67375952321e-002
  +1.67375952321e-002
  +1.67375952321e-002
</dep>
<dep V14.It time res>
  +1.19133005817e-003
  -4.33083481871e-003
  -4.33083481027e-003
  -4.33083278168e-003
  -4.33083481016e-003
  -4.33083278180e-003
  -4.33083481005e-003
  -4.33083278191e-003
  -4.33083480993e-003
  -4.33083278202e-003
  -4.33083480982e-003
  -4.33083278213e-003
  -4.33083480971e-003
  -4.33083278221e-003
  -4.33083480966e-003
  -4.33083278228e-003
  -4.33083480962e-003
  -4.33083278230e-003
  -4.33083480957e-003
  -4.33083278236e-003
  -4.33083480953e-003
  -4.33083278240e-003
  -4.33083480948e-003
  -4.33083278244e-003
  -4.33083480944e-003
  +5.61100424500e-008
  +1.65388077046e-009
  -1.65384410552e-009
  +1.65379749934e-009
  -1.65375113166e-009
  +1.65370498023e-009
  -1.65365902489e-009
  +1.65361324738e-009
  -1.65356870876e-009
  +1.65352529144e-009
  -1.65348235842e-009
  +1.65344293627e-009
  -1.65340669459e-009
  -1.65324148461e-009
  -1.65318402261e-009
  +1.65243985779e-009
  -1.65232525444e-009
  +1.65229186905e-009
  -1.65225848741e-009
  +1.65222510931e-009
  -1.65219173453e-009
  +1.65215836289e-009
  -1.65212499421e-009
  +1.65209162832e-009
  -1.65204677219e-009
  -2.23929083711e-003
  -2.23914109868e-003
  -2.23914104811e-003
  -2.23914109237e-003
  -2.23914105488e-003
  -2.23914108678e-003
  -2.23914105842e-003
  -2.23914108363e-003
  -2.23914106123e-003
  -2.23914108115e-003
  -2.23914106344e-003
  -2.23914107918e-003
  -2.23914106517e-003
  -2.23914107762e-003
  -2.23914106656e-003
  -2.23914107640e-003
  -2.23914106765e-003
  -2.23914107542e-003
  -2.23914106850e-003
  -2.23914107467e-003
  -2.23914106920e-003
  -2.23914107404e-003
  -2.23914106973e-003
  -2.23914107358e-003
  -2.23914107015e-003
  +4.42864704187e-010
  -4.42825466128e-010
  +4.42811115648e-010
  -4.42796490552e-010
  +4.42776303921e-010
  -4.42763936901e-010
  +4.42752027553e-010
  -4.42740348595e-010
  +4.42728884143e-010
  -4.42717619408e-010
  +4.42706540621e-010
  -4.42695634963e-010
  +4.42684890501e-010
  -4.42674296123e-010
  +4.42663841487e-010
  -4.42653516963e-010
  +4.42643313585e-010
  -4.42633223004e-010
  +4.42623237450e-010
  -4.42613349687e-010
  +4.42603552980e-010
  -4.42593841059e-010
  +4.42584208082e-010
  -4.42574648618e-010
  +4.42565157604e-010
</dep>
<dep V15.It time res>
  -5.79354662439e-004
  +1.42444110338e-009
  +1.42430764706e-009
  -6.04368991294e-010
  +1.42419465917e-009
  -6.04256248901e-010
  +1.42408192293e-009
  -6.04143518902e-010
  +1.42396919923e-009
  -6.04030801475e-010
  +1.42385648809e-009
  -6.03918096584e-010
  +1.42374378944e-009
  -6.03839519510e-010
  +1.42369792753e-009
  -6.03781808751e-010
  +1.42364245359e-009
  -6.03739641440e-010
  +1.42360091094e-009
  -6.03698099647e-010
  +1.42355937000e-009
  -6.03656559577e-010
  +1.42351783079e-009
  -6.03615021190e-010
  +1.42347629324e-009
  +5.27156149761e-008
  -1.65299567660e-009
  +1.65296335637e-009
  -1.65292183772e-009
  +1.65288008280e-009
  -1.65283811388e-009
  +1.65279595111e-009
  -1.65275361278e-009
  +1.65271212270e-009
  -1.65267141803e-009
  +1.65263093649e-009
  -1.65259357920e-009
  +1.65255909059e-009
  +1.65240039974e-009
  +1.65234470828e-009
  -1.65161230134e-009
  +1.65149810339e-009
  -1.65146482049e-009
  +1.65143153517e-009
  -1.65139824767e-009
  +1.65136495818e-009
  -1.65133166691e-009
  +1.65129837401e-009
  -1.65126507967e-009
  +1.65122031359e-009
  -2.11664985334e-003
  -2.11650807572e-003
  -2.11650812628e-003
  -2.11650808204e-003
  -2.11650811952e-003
  -2.11650808763e-003
  -2.11650811596e-003
  -2.11650809077e-003
  -2.11650811317e-003
  -2.11650809325e-003
  -2.11650811095e-003
  -2.11650809522e-003
  -2.11650810921e-003
  -2.11650809677e-003
  -2.11650810784e-003
  -2.11650809800e-003
  -2.11650810674e-003
  -2.11650809898e-003
  -2.11650810590e-003
  -2.11650809974e-003
  -2.11650810522e-003
  -2.11650810035e-003
  -2.11650810467e-003
  -2.11650810084e-003
  -2.11650810423e-003
  -4.42476211620e-010
  +4.42467365183e-010
  -4.42463190366e-010
  +4.42458413066e-010
  -4.42450954367e-010
  +4.42445888731e-010
  -4.42440658808e-010
  +4.42435198711e-010
  -4.42429524334e-010
  +4.42423650474e-010
  -4.42417590904e-010
  +4.42411358448e-010
  -4.42404965049e-010
  +4.42398421823e-010
  -4.42391739116e-010
  +4.42384926565e-010
  -4.42377993142e-010
  +4.42370947195e-010
  -4.42363796501e-010
  +4.42356548297e-010
  -4.42349209324e-010
  +4.42341785857e-010
  -4.42334283735e-010
  +4.42326708397e-010
  -4.42319064905e-010
</dep>
<dep Vclamper.Vt time res>
  +0.00000000000e+000
  +0.00000000000e+000
  +0.00000000000e+000
  +0.00000000000e+000
  +0.00000000000e+000
  +0.00000000000e+000
  +0.00000000000e+000
  +0.00000000000e+000
  +0.00000000000e+000
  +0.00000000000e+000
  +0.00000000000e+000
  +0.00000000000e+000
  +0.00000000000e+000
  +0.00000000000e+000
  +0.00000000000e+000
  +0.00000000000e+000
  +0.00000000000e+000
  +0.00000000000e+000
  +0.00000000000e+000
  +0.00000000000e+000
  +0.00000000000e+000
  +0.00000000000e+000
  +0.00000000000e+000
  +0.00000000000e+000
  +0.00000000000e+000
  +0.00000000000e+000
  +0.00000000000e+000
  +0.00000000000e+000
  +0.00000000000e+000
  +0.00000000000e+000
  +0.00000000000e+000
  +0.00000000000e+000
  +0.00000000000e+000
  +0.00000000000e+000
  +0.00000000000e+000
  +0.00000000000e+000
  +0.00000000000e+000
  +0.00000000000e+000
  +0.00000000000e+000
  +0.00000000000e+000
  +0.00000000000e+000
  +0.00000000000e+000
  +0.00000000000e+000
  +0.00000000000e+000
  +0.00000000000e+000
  +0.00000000000e+000
  +0.00000000000e+000
  +0.00000000000e+000
  +0.00000000000e+000
  +0.00000000000e+000
  +0.00000000000e+000
  +0.00000000000e+000
  +0.00000000000e+000
  +0.00000000000e+000
